
ESP-ROM:esp32s3-20210327
Build:Mar 27 2021
rst:0x1 (POWERON),boot:0x8 (SPI_FAST_FLASH_BOOT)
SPIWP:0xee
mode:DIO, clock div:1
load:0x3fce3810,len:0x178c
load:0x403c9700,len:0x4
load:0x403c9704,len:0xcbc
load:0x403cc700,len:0x2da0
SHA-256 comparison failed:
Calculated: f6480e415161efbbcec0fe27d1780e22870b6d8f0027b8455711d0f74c133f59
Expected: ffffffffffffffffffffffffffffffffffffffffffffffffffffffffffffffff
Attempting to boot anyway...
entry 0x403c9914
[0;32mI (45) boot: ESP-IDF v5.2.1-dirty 2nd stage bootloader[0m
[0;32mI (45) boot: compile time Mar 22 2025 23:26:23[0m
[0;32mI (45) boot: Multicore bootloader[0m
[0;32mI (49) boot: chip revision: v0.2[0m
[0;32mI (53) boot.esp32s3: Boot SPI Speed : 80MHz[0m
[0;32mI (57) boot.esp32s3: SPI Mode       : DIO[0m
[0;32mI (62) boot.esp32s3: SPI Flash Size : 16MB[0m
[0;32mI (67) boot: Enabling RNG early entropy source...[0m
[0;32mI (72) boot: Partition Table:[0m
[0;32mI (76) boot: ## Label            Usage          Type ST Offset   Length[0m
[0;32mI (83) boot:  0 nvs              WiFi data        01 02 00009000 00006000[0m
[0;32mI (91) boot:  1 phy_init         RF data          01 01 0000f000 00001000[0m
[0;32mI (98) boot:  2 otadata          OTA data         01 00 00010000 00002000[0m
[0;32mI (106) boot:  3 factory          factory app      00 00 00020000 00200000[0m
[0;32mI (113) boot:  4 ota_0            OTA app          00 10 00220000 00200000[0m
[0;32mI (121) boot:  5 ota_1            OTA app          00 11 00420000 00200000[0m
[0;32mI (128) boot:  6 spiffs           Unknown data     01 82 00620000 00080000[0m
[0;32mI (136) boot: End of partition table[0m
[0;32mI (140) boot: Defaulting to factory image[0m
[0;32mI (145) esp_image: segment 0: paddr=00020020 vaddr=3c0c0020 size=2dddch (187868) map[0m
[0;32mI (174) esp_image: segment 1: paddr=0004de04 vaddr=3fc99d00 size=02214h (  8724) load[0m
[0;32mI (176) esp_image: segment 2: paddr=00050020 vaddr=42000020 size=b0998h (723352) map[0m
[0;32mI (261) esp_image: segment 3: paddr=001009c0 vaddr=3fc9bf14 size=026e4h (  9956) load[0m
[0;32mI (263) esp_image: segment 4: paddr=001030ac vaddr=40374000 size=15c00h ( 89088) load[0m
[0;32mI (289) boot: Loaded app from partition at offset 0x20000[0m
[0;32mI (289) boot: Disabling RNG early entropy source...[0m
[0;32mI (301) cpu_start: Multicore app[0m
[0;32mI (311) cpu_start: Pro cpu start user code[0m
[0;32mI (311) cpu_start: cpu freq: 240000000 Hz[0m
[0;32mI (311) cpu_start: Application information:[0m
[0;32mI (314) cpu_start: Project name:     main[0m
[0;32mI (319) cpu_start: App version:      0.0.1[0m
[0;32mI (323) cpu_start: Compile time:     Mar 23 2025 09:34:29[0m
[0;32mI (329) cpu_start: ELF file SHA256:  4bd69406c...[0m
[0;32mI (335) cpu_start: ESP-IDF:          v5.2.1-dirty[0m
[0;32mI (340) cpu_start: Min chip rev:     v0.0[0m
[0;32mI (345) cpu_start: Max chip rev:     v0.99 [0m
[0;32mI (350) cpu_start: Chip rev:         v0.2[0m
[0;32mI (355) heap_init: Initializing. RAM available for dynamic allocation:[0m
[0;32mI (362) heap_init: At 3FCA2928 len 00046DE8 (283 KiB): RAM[0m
[0;32mI (368) heap_init: At 3FCE9710 len 00005724 (21 KiB): RAM[0m
[0;32mI (374) heap_init: At 3FCF0000 len 00008000 (32 KiB): DRAM[0m
[0;32mI (380) heap_init: At 600FE010 len 00001FD8 (7 KiB): RTCRAM[0m
[0;32mI (387) spi_flash: detected chip: boya[0m
[0;32mI (391) spi_flash: flash io: dio[0m
[0;32mI (395) sleep: Configure to isolate all GPIO pins in sleep state[0m
[0;32mI (402) sleep: Enable automatic switching of GPIO sleep configuration[0m
[0;32mI (409) main_task: Started on CPU0[0m
[0;32mI (419) main_task: Calling app_main()[0m
[0;32mI (419) SYS: REBOOT[0m
Build at Mar 23 2025 09:35:40
[0;32mI (879) NVS: Initialze NVS[0m
 - WiFi SSID: SianAP
 - WiFi Password: sian79917
 - MQTT URL: mqtts://192.168.1.108
 - MQTT Username: ghost29083
 - MQTT Password: 123456789
 - Measurement publish period (seconds): 60
 - UTC: CST-8
 - DeviceSerial: 123
 - OTA_URL: 
[0;32mI (949) SPIFFS: SPIFFS Mounted.[0m
[0;32mI (949) SYS: Initialize LED[0m
[0;32mI (949) NRF24: CONFIG_MISO_GPIO=12[0m
[0;32mI (949) NRF24: CONFIG_MOSI_GPIO=11[0m
[0;32mI (949) NRF24: CONFIG_SCLK_GPIO=10[0m
[0;32mI (949) NRF24: CONFIG_CE_GPIO=8[0m
[0;32mI (959) NRF24: CONFIG_CSN_GPIO=9[0m
[0;32mI (959) gpio: GPIO[8]| InputEn: 0| OutputEn: 0| OpenDrain: 0| Pullup: 1| Pulldown: 0| Intr:0 [0m
[0;32mI (969) gpio: GPIO[9]| InputEn: 0| OutputEn: 0| OpenDrain: 0| Pullup: 1| Pulldown: 0| Intr:0 [0m
[0;32mI (979) NRF24: spi_bus_initialize=0[0m
[0;32mI (989) NRF24: spi_bus_add_device=0[0m
[0;32mI (989) SENDER: Start[0m
[0;33mW (989) SENDER: Set RF Data Ratio to 250KBps[0m
[0;33mW (999) SENDER: CONFIG_RETRANSMIT_DELAY=0[0m
================ SPI Configuration ================
CSN Pin  	 = GPIO9
CE Pin		 = GPIO8
Clock Speed	 = 4000000
================ NRF Configuration ================
STATUS		 = 0x0e RX_DR=0 TX_DS=0 MAX_RT=0 RX_P_NO=7 TX_FULL=0
RX_ADDR_P0-1	 = 0x464748494a 0x464748494a
RX_ADDR_P2-5	 = 0xc3 0xc4 0xc5 0xc6
TX_ADDR		 = 0x464748494a
RX_PW_P0-6	 = 0x20 0x20 0x00 0x00 0x00 0x00
EN_AA		 = 0x3f
EN_RXADDR	 = 0x03
RF_CH		 = 0x5a
RF_SETUP	 = 0x27
CONFIG		 = 0x2b
DYNPD/FEATURE	 = 0x00 0x00
Data Rate	 = 250Kbps
CRC Length	 = 8 bits
PA Power	 = PA_MAX
Retransmit	 = 250 us
[0;32mI (1049) RECEVIER: Start[0m
[0;32mI (1049) SENDER: Wait for sending.....[0m
[0;33mW (1059) RECEVIER: Set RF Data Ratio to 250KBps[0m
[0;33mW (1059) SENDER: Send fail:[0m
[0;33mW (1069) RECEVIER: CONFIG_RETRANSMIT_DELAY=0[0m
================ SPI Configuration ================
CSN Pin  	 = GPIO9
CE Pin		 = GPIO8
Clock Speed	 = 4000000
================ NRF Configuration ================
STATUS		 = 0x0e RX_DR=0 TX_DS=0 MAX_RT=0 RX_P_NO=7 TX_FULL=0
RX_ADDR_P0-1	 = 0x464748494a 0x464748494a
RX_ADDR_P2-5	 = 0xc3 0xc4 0xc5 0xc6
TX_ADDR		 = 0x464748494a
RX_PW_P0-6	 = 0x20 0x20 0x00 0x00 0x00 0x00
EN_AA		 = 0x3f
EN_RXADDR	 = 0x03
RF_CH		 = 0x5a
RF_SETUP	 = 0x27
CONFIG		 = 0x2b
DYNPD/FEATURE	 = 0x00 0x00
Data Rate	 = 250Kbps
CRC Length	 = 8 bits
PA Power	 = PA_MAX
Retransmit	 = 250 us
[0;32mI (1129) RECEVIER: Listening...[0m
Handling WIFI connections.
[0;32mI (1129) pp: pp rom version: e7ae62f[0m
[0;32mI (1139) net80211: net80211 rom version: e7ae62f[0m
I (1149) wifi:wifi driver task: 3fcafafc, prio:23, stack:6656, core=0
I (1159) wifi:wifi firmware version: a9f5b59
I (1159) wifi:wifi certification version: v7.0
I (1159) wifi:config NVS flash: enabled
I (1159) wifi:config nano formating: disabled
I (1169) wifi:Init data frame dynamic rx buffer num: 32
I (1169) wifi:Init static rx mgmt buffer num: 5
I (1179) wifi:Init management short buffer num: 32
I (1179) wifi:Init static tx buffer num: 16
I (1179) wifi:Init static tx FG buffer num: 2
I (1189) wifi:Init static rx buffer size: 1600
I (1189) wifi:Init static rx buffer num: 10
I (1199) wifi:Init dynamic rx buffer num: 32
[0;32mI (1199) wifi_init: rx ba win: 6[0m
[0;32mI (1199) wifi_init: tcpip mbox: 32[0m
[0;32mI (1209) wifi_init: udp mbox: 6[0m
[0;32mI (1209) wifi_init: tcp mbox: 6[0m
[0;32mI (1219) wifi_init: tcp tx win: 5760[0m
[0;32mI (1219) wifi_init: tcp rx win: 5760[0m
[0;32mI (1219) wifi_init: tcp mss: 1440[0m
[0;32mI (1229) wifi_init: WiFi IRAM OP enabled[0m
[0;32mI (1229) wifi_init: WiFi RX IRAM OP enabled[0m
[0;32mI (1239) phy_init: phy_version 640,cd64a1a,Jan 24 2024,17:28:12[0m
I (1279) wifi:mode : sta (f0:9e:9e:11:53:38) + softAP (f0:9e:9e:11:53:39)
I (1279) wifi:enable tsf
I (1279) wifi:Total power save buffer number: 8
I (1279) wifi:Init max length of beacon: 752/752
I (1289) wifi:Init max length of beacon: 752/752
[0;32mI (1289) WIFI: Wi-Fi enableï¼Œ Starting connect...[0m
[0;32mI (1299) esp_netif_lwip: DHCP server started on interface WIFI_AP_DEF with IP: 192.168.4.1[0m
[0;32mI (2069) SENDER: Wait for sending.....[0m
[0;33mW (2079) NRF24: Maximum number of TX retries interrupt[0m
[0;33mW (2079) SENDER: Send fail:[0m
I (2909) wifi:ap channel adjust o:1,1 n:11,2
I (2909) wifi:new:<11,0>, old:<1,1>, ap:<11,2>, sta:<11,0>, prof:1
I (2909) wifi:state: init -> auth (b0)

assert failed: spi_device_transmit spi_master.c:1023 (ret_trans == trans_desc)


Backtrace: 0x40375ade:0x3fca9a50 0x4037cced:0x3fca9a70 0x403858f9:0x3fca9a90 0x42015e5d:0x3fca9bb0 0x4200c37d:0x3fca9be0 0x4200c395:0x3fca9c30 0x4200c3db:0x3fca9c60 0x4200c558:0x3fca9c80 0x4200c5bf:0x3fca9ca0 0x4200bfea:0x3fca9cc0 0x4037d7f9:0x3fca9d00




ELF file SHA256: 4bd69406c

Rebooting...
ESP-ROM:esp32s3-20210327
Build:Mar 27 2021
rst:0xc (RTC_SW_CPU_RST),boot:0x8 (SPI_FAST_FLASH_BOOT)
Saved PC:0x4204570e
SPIWP:0xee
mode:DIO, clock div:1
load:0x3fce3810,len:0x178c
load:0x403c9700,len:0x4
load:0x403c9704,len:0xcbc
load:0x403cc700,len:0x2da0
SHA-256 comparison failed:
Calculated: f6480e415161efbbcec0fe27d1780e22870b6d8f0027b8455711d0f74c133f59
Expected: ffffffffffffffffffffffffffffffffffffffffffffffffffffffffffffffff
Attempting to boot anyway...
entry 0x403c9914
[0;32mI (49) boot: ESP-IDF v5.2.1-dirty 2nd stage bootloader[0m
[0;32mI (50) boot: compile time Mar 22 2025 23:26:23[0m
[0;32mI (50) boot: Multicore bootloader[0m
[0;32mI (53) boot: chip revision: v0.2[0m
[0;32mI (57) boot.esp32s3: Boot SPI Speed : 80MHz[0m
[0;32mI (62) boot.esp32s3: SPI Mode       : DIO[0m
[0;32mI (67) boot.esp32s3: SPI Flash Size : 16MB[0m
[0;32mI (71) boot: Enabling RNG early entropy source...[0m
[0;32mI (77) boot: Partition Table:[0m
[0;32mI (80) boot: ## Label            Usage          Type ST Offset   Length[0m
[0;32mI (88) boot:  0 nvs              WiFi data        01 02 00009000 00006000[0m
[0;32mI (95) boot:  1 phy_init         RF data          01 01 0000f000 00001000[0m
[0;32mI (103) boot:  2 otadata          OTA data         01 00 00010000 00002000[0m
[0;32mI (110) boot:  3 factory          factory app      00 00 00020000 00200000[0m
[0;32mI (118) boot:  4 ota_0            OTA app          00 10 00220000 00200000[0m
[0;32mI (125) boot:  5 ota_1            OTA app          00 11 00420000 00200000[0m
[0;32mI (133) boot:  6 spiffs           Unknown data     01 82 00620000 00080000[0m
[0;32mI (140) boot: End of partition table[0m
[0;32mI (145) boot: Defaulting to factory image[0m
[0;32mI (149) esp_image: segment 0: paddr=00020020 vaddr=3c0c0020 size=2dddch (187868) map[0m
[0;32mI (179) esp_image: segment 1: paddr=0004de04 vaddr=3fc99d00 size=02214h (  8724) load[0m
[0;32mI (180) esp_image: segment 2: paddr=00050020 vaddr=42000020 size=b0998h (723352) map[0m
[0;32mI (265) esp_image: segment 3: paddr=001009c0 vaddr=3fc9bf14 size=026e4h (  9956) load[0m
[0;32mI (267) esp_image: segment 4: paddr=001030ac vaddr=40374000 size=15c00h ( 89088) load[0m
[0;32mI (294) boot: Loaded app from partition at offset 0x20000[0m
[0;32mI (294) boot: Disabling RNG early entropy source...[0m
[0;32mI (305) cpu_start: Multicore app[0m
[0;32mI (315) cpu_start: Pro cpu start user code[0m
[0;32mI (315) cpu_start: cpu freq: 240000000 Hz[0m
[0;32mI (315) cpu_start: Application information:[0m
[0;32mI (318) cpu_start: Project name:     main[0m
[0;32mI (323) cpu_start: App version:      0.0.1[0m
[0;32mI (328) cpu_start: Compile time:     Mar 23 2025 09:34:29[0m
[0;32mI (334) cpu_start: ELF file SHA256:  4bd69406c...[0m
[0;32mI (339) cpu_start: ESP-IDF:          v5.2.1-dirty[0m
[0;32mI (345) cpu_start: Min chip rev:     v0.0[0m
[0;32mI (349) cpu_start: Max chip rev:     v0.99 [0m
[0;32mI (354) cpu_start: Chip rev:         v0.2[0m
[0;32mI (359) heap_init: Initializing. RAM available for dynamic allocation:[0m
[0;32mI (366) heap_init: At 3FCA2928 len 00046DE8 (283 KiB): RAM[0m
[0;32mI (372) heap_init: At 3FCE9710 len 00005724 (21 KiB): RAM[0m
[0;32mI (378) heap_init: At 3FCF0000 len 00008000 (32 KiB): DRAM[0m
[0;32mI (385) heap_init: At 600FE010 len 00001FD8 (7 KiB): RTCRAM[0m
[0;32mI (392) spi_flash: detected chip: boya[0m
[0;32mI (395) spi_flash: flash io: dio[0m
[0;32mI (400) sleep: Configure to isolate all GPIO pins in sleep state[0m
[0;32mI (406) sleep: Enable automatic switching of GPIO sleep configuration[0m
[0;32mI (413) main_task: Started on CPU0[0m
[0;32mI (423) main_task: Calling app_main()[0m
[0;32mI (423) SYS: REBOOT[0m
Build at Mar 23 2025 09:35:40
[0;32mI (1253) NVS: Initialze NVS[0m
 - WiFi SSID: SianAP
 - WiFi Password: sian79917
 - MQTT URL: mqtts://192.168.1.108
 - MQTT Username: ghost29083
 - MQTT Password: 123456789
 - Measurement publish period (seconds): 60
 - UTC: CST-8
 - DeviceSerial: 123
 - OTA_URL: 
[0;32mI (1323) SPIFFS: SPIFFS Mounted.[0m
[0;32mI (1323) SYS: Initialize LED[0m
[0;32mI (1323) NRF24: CONFIG_MISO_GPIO=12[0m
[0;32mI (1323) NRF24: CONFIG_MOSI_GPIO=11[0m
[0;32mI (1323) NRF24: CONFIG_SCLK_GPIO=10[0m
[0;32mI (1333) NRF24: CONFIG_CE_GPIO=8[0m
[0;32mI (1333) NRF24: CONFIG_CSN_GPIO=9[0m
[0;32mI (1333) gpio: GPIO[8]| InputEn: 0| OutputEn: 0| OpenDrain: 0| Pullup: 1| Pulldown: 0| Intr:0 [0m
[0;32mI (1343) gpio: GPIO[9]| InputEn: 0| OutputEn: 0| OpenDrain: 0| Pullup: 1| Pulldown: 0| Intr:0 [0m
[0;32mI (1353) NRF24: spi_bus_initialize=0[0m
[0;32mI (1363) NRF24: spi_bus_add_device=0[0m
[0;32mI (1363) SENDER: Start[0m
[0;33mW (1363) SENDER: Set RF Data Ratio to 250KBps[0m
[0;33mW (1373) SENDER: CONFIG_RETRANSMIT_DELAY=0[0m
================ SPI Configuration ================
CSN Pin  	 = GPIO9
CE Pin		 = GPIO8
Clock Speed	 = 4000000
================ NRF Configuration ================
STATUS		 = 0x0e RX_DR=0 TX_DS=0 MAX_RT=0 RX_P_NO=7 TX_FULL=0
RX_ADDR_P0-1	 = 0x464748494a 0x464748494a
RX_ADDR_P2-5	 = 0xc3 0xc4 0xc5 0xc6
TX_ADDR		 = 0x464748494a
RX_PW_P0-6	 = 0x20 0x20 0x00 0x00 0x00 0x00
EN_AA		 = 0x3f
EN_RXADDR	 = 0x03
RF_CH		 = 0x5a
RF_SETUP	 = 0x27
CONFIG		 = 0x2b
DYNPD/FEATURE	 = 0x00 0x00
Data Rate	 = 250Kbps
CRC Length	 = 8 bits
PA Power	 = PA_MAX
Retransmit	 = 250 us
[0;32mI (1423) RECEVIER: Start[0m
[0;32mI (1423) SENDER: Wait for sending.....[0m
[0;33mW (1433) RECEVIER: Set RF Data Ratio to 250KBps[0m
[0;33mW (1433) SENDER: Send fail:[0m
[0;33mW (1443) RECEVIER: CONFIG_RETRANSMIT_DELAY=0[0m
================ SPI Configuration ================
CSN Pin  	 = GPIO9
CE Pin		 = GPIO8
Clock Speed	 = 4000000
================ NRF Configuration ================
STATUS		 = 0x0e RX_DR=0 TX_DS=0 MAX_RT=0 RX_P_NO=7 TX_FULL=0
RX_ADDR_P0-1	 = 0x464748494a 0x464748494a
RX_ADDR_P2-5	 = 0xc3 0xc4 0xc5 0xc6
TX_ADDR		 = 0x464748494a
RX_PW_P0-6	 = 0x20 0x20 0x00 0x00 0x00 0x00
EN_AA		 = 0x3f
EN_RXADDR	 = 0x03
RF_CH		 = 0x5a
RF_SETUP	 = 0x27
CONFIG		 = 0x2b
DYNPD/FEATURE	 = 0x00 0x00
Data Rate	 = 250Kbps
CRC Length	 = 8 bits
PA Power	 = PA_MAX
Retransmit	 = 250 us
[0;32mI (1503) RECEVIER: Listening...[0m
Handling WIFI connections.
[0;32mI (1503) pp: pp rom version: e7ae62f[0m
[0;32mI (1513) net80211: net80211 rom version: e7ae62f[0m
I (1523) wifi:wifi driver task: 3fcafafc, prio:23, stack:6656, core=0
I (1533) wifi:wifi firmware version: a9f5b59
I (1533) wifi:wifi certification version: v7.0
I (1533) wifi:config NVS flash: enabled
I (1533) wifi:config nano formating: disabled
I (1543) wifi:Init data frame dynamic rx buffer num: 32
I (1543) wifi:Init static rx mgmt buffer num: 5
I (1553) wifi:Init management short buffer num: 32
I (1553) wifi:Init static tx buffer num: 16
I (1563) wifi:Init static tx FG buffer num: 2
I (1563) wifi:Init static rx buffer size: 1600
I (1563) wifi:Init static rx buffer num: 10
I (1573) wifi:Init dynamic rx buffer num: 32
[0;32mI (1573) wifi_init: rx ba win: 6[0m
[0;32mI (1583) wifi_init: tcpip mbox: 32[0m
[0;32mI (1583) wifi_init: udp mbox: 6[0m
[0;32mI (1583) wifi_init: tcp mbox: 6[0m
[0;32mI (1593) wifi_init: tcp tx win: 5760[0m
[0;32mI (1593) wifi_init: tcp rx win: 5760[0m
[0;32mI (1603) wifi_init: tcp mss: 1440[0m
[0;32mI (1603) wifi_init: WiFi IRAM OP enabled[0m
[0;32mI (1603) wifi_init: WiFi RX IRAM OP enabled[0m
[0;32mI (1623) phy_init: phy_version 640,cd64a1a,Jan 24 2024,17:28:12[0m
I (1653) wifi:mode : sta (f0:9e:9e:11:53:38) + softAP (f0:9e:9e:11:53:39)
I (1653) wifi:enable tsf
I (1663) wifi:Total power save buffer number: 8
I (1663) wifi:Init max length of beacon: 752/752
I (1663) wifi:Init max length of beacon: 752/752
[0;32mI (1663) WIFI: Wi-Fi enableï¼Œ Starting connect...[0m
[0;32mI (1673) esp_netif_lwip: DHCP server started on interface WIFI_AP_DEF with IP: 192.168.4.1[0m
[0;32mI (2443) SENDER: Wait for sending.....[0m
[0;33mW (2453) NRF24: Maximum number of TX retries interrupt[0m
[0;33mW (2453) SENDER: Send fail:[0m
I (3223) wifi:ap channel adjust o:1,1 n:11,2
I (3223) wifi:new:<11,0>, old:<1,1>, ap:<11,2>, sta:<11,0>, prof:1
I (3223) wifi:state: init -> auth (b0)

assert failed: spi_device_transmit spi_master.c:1023 (ret_trans == trans_desc)


Backtrace: 0x40375ade:0x3fca9a50 0x4037cced:0x3fca9a70 0x403858f9:0x3fca9a90 0x42015e5d:0x3fca9bb0 0x4200c37d:0x3fca9be0 0x4200c395:0x3fca9c30 0x4200c3db:0x3fca9c60 0x4200c558:0x3fca9c80 0x4200c5bf:0x3fca9ca0 0x4200bfea:0x3fca9cc0 0x4037d7f9:0x3fca9d00




ELF file SHA256: 4bd69406c

Rebooting...
ESP-ROM:esp32s3-20210327
Build:Mar 27 2021
rst:0xc (RTC_SW_CPU_RST),boot:0x8 (SPI_FAST_FLASH_BOOT)
Saved PC:0x4207aaf3
SPIWP:0xee
mode:DIO, clock div:1
load:0x3fce3810,len:0x178c
load:0x403c9700,len:0x4
load:0x403c9704,len:0xcbc
load:0x403cc700,len:0x2da0
SHA-256 comparison failed:
Calculated: f6480e415161efbbcec0fe27d1780e22870b6d8f0027b8455711d0f74c133f59
Expected: ffffffffffffffffffffffffffffffffffffffffffffffffffffffffffffffff
Attempting to boot anyway...
entry 0x403c9914
[0;32mI (49) boot: ESP-IDF v5.2.1-dirty 2nd stage bootloader[0m
[0;32mI (50) boot: compile time Mar 22 2025 23:26:23[0m
[0;32mI (50) boot: Multicore bootloader[0m
[0;32mI (53) boot: chip revision: v0.2[0m
[0;32mI (57) boot.esp32s3: Boot SPI Speed : 80MHz[0m
[0;32mI (62) boot.esp32s3: SPI Mode       : DIO[0m
[0;32mI (67) boot.esp32s3: SPI Flash Size : 16MB[0m
[0;32mI (71) boot: Enabling RNG early entropy source...[0m
[0;32mI (77) boot: Partition Table:[0m
[0;32mI (80) boot: ## Label            Usage          Type ST Offset   Length[0m
[0;32mI (88) boot:  0 nvs              WiFi data        01 02 00009000 00006000[0m
[0;32mI (95) boot:  1 phy_init         RF data          01 01 0000f000 00001000[0m
[0;32mI (103) boot:  2 otadata          OTA data         01 00 00010000 00002000[0m
[0;32mI (110) boot:  3 factory          factory app      00 00 00020000 00200000[0m
[0;32mI (118) boot:  4 ota_0            OTA app          00 10 00220000 00200000[0m
[0;32mI (125) boot:  5 ota_1            OTA app          00 11 00420000 00200000[0m
[0;32mI (133) boot:  6 spiffs           Unknown data     01 82 00620000 00080000[0m
[0;32mI (140) boot: End of partition table[0m
[0;32mI (145) boot: Defaulting to factory image[0m
[0;32mI (149) esp_image: segment 0: paddr=00020020 vaddr=3c0c0020 size=2dddch (187868) map[0m
[0;32mI (179) esp_image: segment 1: paddr=0004de04 vaddr=3fc99d00 size=02214h (  8724) load[0m
[0;32mI (180) esp_image: segment 2: paddr=00050020 vaddr=42000020 size=b0998h (723352) map[0m
[0;32mI (265) esp_image: segment 3: paddr=001009c0 vaddr=3fc9bf14 size=026e4h (  9956) load[0m
[0;32mI (267) esp_image: segment 4: paddr=001030ac vaddr=40374000 size=15c00h ( 89088) load[0m
[0;32mI (294) boot: Loaded app from partition at offset 0x20000[0m
[0;32mI (294) boot: Disabling RNG early entropy source...[0m
[0;32mI (305) cpu_start: Multicore app[0m
[0;32mI (315) cpu_start: Pro cpu start user code[0m
[0;32mI (315) cpu_start: cpu freq: 240000000 Hz[0m
[0;32mI (315) cpu_start: Application information:[0m
[0;32mI (318) cpu_start: Project name:     main[0m
[0;32mI (323) cpu_start: App version:      0.0.1[0m
[0;32mI (328) cpu_start: Compile time:     Mar 23 2025 09:34:29[0m
[0;32mI (334) cpu_start: ELF file SHA256:  4bd69406c...[0m
[0;32mI (339) cpu_start: ESP-IDF:          v5.2.1-dirty[0m
[0;32mI (345) cpu_start: Min chip rev:     v0.0[0m
[0;32mI (349) cpu_start: Max chip rev:     v0.99 [0m
[0;32mI (354) cpu_start: Chip rev:         v0.2[0m
[0;32mI (359) heap_init: Initializing. RAM available for dynamic allocation:[0m
[0;32mI (366) heap_init: At 3FCA2928 len 00046DE8 (283 KiB): RAM[0m
[0;32mI (372) heap_init: At 3FCE9710 len 00005724 (21 KiB): RAM[0m
[0;32mI (378) heap_init: At 3FCF0000 len 00008000 (32 KiB): DRAM[0m
[0;32mI (385) heap_init: At 600FE010 len 00001FD8 (7 KiB): RTCRAM[0m
[0;32mI (392) spi_flash: detected chip: boya[0m
[0;32mI (395) spi_flash: flash io: dio[0m
[0;32mI (400) sleep: Configure to isolate all GPIO pins in sleep state[0m
[0;32mI (406) sleep: Enable automatic switching of GPIO sleep configuration[0m
[0;32mI (413) main_task: Started on CPU0[0m
[0;32mI (423) main_task: Calling app_main()[0m
[0;32mI (423) SYS: REBOOT[0m
Build at Mar 23 2025 09:35:40
[0;32mI (533) NVS: Initialze NVS[0m
 - WiFi SSID: SianAP
 - WiFi Password: sian79917
 - MQTT URL: mqtts://192.168.1.108
 - MQTT Username: ghost29083
 - MQTT Password: 123456789
 - Measurement publish period (seconds): 60
 - UTC: CST-8
 - DeviceSerial: 123
 - OTA_URL: 
[0;32mI (603) SPIFFS: SPIFFS Mounted.[0m
[0;32mI (603) SYS: Initialize LED[0m
[0;32mI (603) NRF24: CONFIG_MISO_GPIO=12[0m
[0;32mI (603) NRF24: CONFIG_MOSI_GPIO=11[0m
[0;32mI (603) NRF24: CONFIG_SCLK_GPIO=10[0m
[0;32mI (603) NRF24: CONFIG_CE_GPIO=8[0m
[0;32mI (613) NRF24: CONFIG_CSN_GPIO=9[0m
[0;32mI (613) gpio: GPIO[8]| InputEn: 0| OutputEn: 0| OpenDrain: 0| Pullup: 1| Pulldown: 0| Intr:0 [0m
[0;32mI (623) gpio: GPIO[9]| InputEn: 0| OutputEn: 0| OpenDrain: 0| Pullup: 1| Pulldown: 0| Intr:0 [0m
[0;32mI (633) NRF24: spi_bus_initialize=0[0m
[0;32mI (643) NRF24: spi_bus_add_device=0[0m
[0;32mI (643) SENDER: Start[0m
[0;33mW (643) SENDER: Set RF Data Ratio to 250KBps[0m
[0;33mW (653) SENDER: CONFIG_RETRANSMIT_DELAY=0[0m
================ SPI Configuration ================
CSN Pin  	 = GPIO9
CE Pin		 = GPIO8
Clock Speed	 = 4000000
================ NRF Configuration ================
STATUS		 = 0x0e RX_DR=0 TX_DS=0 MAX_RT=0 RX_P_NO=7 TX_FULL=0
RX_ADDR_P0-1	 = 0x464748494a 0x464748494a
RX_ADDR_P2-5	 = 0xc3 0xc4 0xc5 0xc6
TX_ADDR		 = 0x464748494a
RX_PW_P0-6	 = 0x20 0x20 0x00 0x00 0x00 0x00
EN_AA		 = 0x3f
EN_RXADDR	 = 0x03
RF_CH		 = 0x5a
RF_SETUP	 = 0x27
CONFIG		 = 0x2b
DYNPD/FEATURE	 = 0x00 0x00
Data Rate	 = 250Kbps
CRC Length	 = 8 bits
PA Power	 = PA_MAX
Retransmit	 = 250 us
[0;32mI (703) RECEVIER: Start[0m
[0;32mI (703) SENDER: Wait for sending.....[0m
[0;33mW (713) RECEVIER: Set RF Data Ratio to 250KBps[0m
[0;33mW (713) SENDER: Send fail:[0m
[0;33mW (723) RECEVIER: CONFIG_RETRANSMIT_DELAY=0[0m
================ SPI Configuration ================
CSN Pin  	 = GPIO9
CE Pin		 = GPIO8
Clock Speed	 = 4000000
================ NRF Configuration ================
STATUS		 = 0x0e RX_DR=0 TX_DS=0 MAX_RT=0 RX_P_NO=7 TX_FULL=0
RX_ADDR_P0-1	 = 0x464748494a 0x464748494a
RX_ADDR_P2-5	 = 0xc3 0xc4 0xc5 0xc6
TX_ADDR		 = 0x464748494a
RX_PW_P0-6	 = 0x20 0x20 0x00 0x00 0x00 0x00
EN_AA		 = 0x3f
EN_RXADDR	 = 0x03
RF_CH		 = 0x5a
RF_SETUP	 = 0x27
CONFIG		 = 0x2b
DYNPD/FEATURE	 = 0x00 0x00
Data Rate	 = 250Kbps
CRC Length	 = 8 bits
PA Power	 = PA_MAX
Retransmit	 = 250 us
[0;32mI (783) RECEVIER: Listening...[0m
Handling WIFI connections.
[0;32mI (783) pp: pp rom version: e7ae62f[0m
[0;32mI (793) net80211: net80211 rom version: e7ae62f[0m
I (803) wifi:wifi driver task: 3fcafafc, prio:23, stack:6656, core=0
I (813) wifi:wifi firmware version: a9f5b59
I (813) wifi:wifi certification version: v7.0
I (813) wifi:config NVS flash: enabled
I (813) wifi:config nano formating: disabled
I (823) wifi:Init data frame dynamic rx buffer num: 32
I (823) wifi:Init static rx mgmt buffer num: 5
I (823) wifi:Init management short buffer num: 32
I (833) wifi:Init static tx buffer num: 16
I (833) wifi:Init static tx FG buffer num: 2
I (843) wifi:Init static rx buffer size: 1600
I (843) wifi:Init static rx buffer num: 10
I (843) wifi:Init dynamic rx buffer num: 32
[0;32mI (853) wifi_init: rx ba win: 6[0m
[0;32mI (853) wifi_init: tcpip mbox: 32[0m
[0;32mI (863) wifi_init: udp mbox: 6[0m
[0;32mI (863) wifi_init: tcp mbox: 6[0m
[0;32mI (863) wifi_init: tcp tx win: 5760[0m
[0;32mI (873) wifi_init: tcp rx win: 5760[0m
[0;32mI (873) wifi_init: tcp mss: 1440[0m
[0;32mI (883) wifi_init: WiFi IRAM OP enabled[0m
[0;32mI (883) wifi_init: WiFi RX IRAM OP enabled[0m
[0;32mI (893) phy_init: phy_version 640,cd64a1a,Jan 24 2024,17:28:12[0m
I (933) wifi:mode : sta (f0:9e:9e:11:53:38) + softAP (f0:9e:9e:11:53:39)
I (933) wifi:enable tsf
I (933) wifi:Total power save buffer number: 8
I (933) wifi:Init max length of beacon: 752/752
I (933) wifi:Init max length of beacon: 752/752
[0;32mI (943) WIFI: Wi-Fi enableï¼Œ Starting connect...[0m
[0;32mI (953) esp_netif_lwip: DHCP server started on interface WIFI_AP_DEF with IP: 192.168.4.1[0m
[0;32mI (1723) SENDER: Wait for sending.....[0m
[0;33mW (1733) NRF24: Maximum number of TX retries interrupt[0m
[0;33mW (1733) SENDER: Send fail:[0m
I (2553) wifi:ap channel adjust o:1,1 n:11,2
I (2553) wifi:new:<11,0>, old:<1,1>, ap:<11,2>, sta:<11,0>, prof:1
I (2553) wifi:state: init -> auth (b0)

assert failed: spi_device_transmit spi_master.c:1023 (ret_trans == trans_desc)


Backtrace: 0x40375ade:0x3fca9a50 0x4037cced:0x3fca9a70 0x403858f9:0x3fca9a90 0x42015e5d:0x3fca9bb0 0x4200c37d:0x3fca9be0 0x4200c395:0x3fca9c30 0x4200c3db:0x3fca9c60 0x4200c558:0x3fca9c80 0x4200c5bf:0x3fca9ca0 0x4200bfea:0x3fca9cc0 0x4037d7f9:0x3fca9d00




ELF file SHA256: 4bd69406c

Rebooting...
ï¿½ï¿½ï¿½ESP-ROM:esp32s3-20210327
Build:Mar 27 2021
rst:0xc (RTC_SW_CPU_RST),boot:0x8 (SPI_FAST_FLASH_BOOT)
Saved PC:0x4037ff89
SPIWP:0xee
mode:DIO, clock div:1
load:0x3fce3810,len:0x178c
load:0x403c9700,len:0x4
load:0x403c9704,len:0xcbc
load:0x403cc700,len:0x2da0
SHA-256 comparison failed:
Calculated: f6480e415161efbbcec0fe27d1780e22870b6d8f0027b8455711d0f74c133f59
Expected: ffffffffffffffffffffffffffffffffffffffffffffffffffffffffffffffff
Attempting to boot anyway...
entry 0x403c9914
[0;32mI (49) boot: ESP-IDF v5.2.1-dirty 2nd stage bootloader[0m
[0;32mI (50) boot: compile time Mar 22 2025 23:26:23[0m
[0;32mI (50) boot: Multicore bootloader[0m
[0;32mI (53) boot: chip revision: v0.2[0m
[0;32mI (57) boot.esp32s3: Boot SPI Speed : 80MHz[0m
[0;32mI (62) boot.esp32s3: SPI Mode       : DIO[0m
[0;32mI (67) boot.esp32s3: SPI Flash Size : 16MB[0m
[0;32mI (71) boot: Enabling RNG early entropy source...[0m
[0;32mI (77) boot: Partition Table:[0m
[0;32mI (80) boot: ## Label            Usage          Type ST Offset   Length[0m
[0;32mI (88) boot:  0 nvs              WiFi data        01 02 00009000 00006000[0m
[0;32mI (95) boot:  1 phy_init         RF data          01 01 0000f000 00001000[0m
[0;32mI (103) boot:  2 otadata          OTA data         01 00 00010000 00002000[0m
[0;32mI (110) boot:  3 factory          factory app      00 00 00020000 00200000[0m
[0;32mI (118) boot:  4 ota_0            OTA app          00 10 00220000 00200000[0m
[0;32mI (125) boot:  5 ota_1            OTA app          00 11 00420000 00200000[0m
[0;32mI (133) boot:  6 spiffs           Unknown data     01 82 00620000 00080000[0m
[0;32mI (140) boot: End of partition table[0m
[0;32mI (145) boot: Defaulting to factory image[0m
[0;32mI (149) esp_image: segment 0: paddr=00020020 vaddr=3c0c0020 size=2dddch (187868) map[0m
[0;32mI (179) esp_image: segment 1: paddr=0004de04 vaddr=3fc99d00 size=02214h (  8724) load[0m
[0;32mI (180) esp_image: segment 2: paddr=00050020 vaddr=42000020 size=b0998h (723352) map[0m
[0;32mI (265) esp_image: segment 3: paddr=001009c0 vaddr=3fc9bf14 size=026e4h (  9956) load[0m
[0;32mI (267) esp_image: segment 4: paddr=001030ac vaddr=40374000 size=15c00h ( 89088) load[0m
[0;32mI (294) boot: Loaded app from partition at offset 0x20000[0m
[0;32mI (294) boot: Disabling RNG early entropy source...[0m
[0;32mI (305) cpu_start: Multicore app[0m
[0;32mI (315) cpu_start: Pro cpu start user code[0m
[0;32mI (315) cpu_start: cpu freq: 240000000 Hz[0m
[0;32mI (315) cpu_start: Application information:[0m
[0;32mI (318) cpu_start: Project name:     main[0m
[0;32mI (323) cpu_start: App version:      0.0.1[0m
[0;32mI (328) cpu_start: Compile time:     Mar 23 2025 09:34:29[0m
[0;32mI (334) cpu_start: ELF file SHA256:  4bd69406c...[0m
[0;32mI (339) cpu_start: ESP-IDF:          v5.2.1-dirty[0m
[0;32mI (345) cpu_start: Min chip rev:     v0.0[0m
[0;32mI (349) cpu_start: Max chip rev:     v0.99 [0m
[0;32mI (354) cpu_start: Chip rev:         v0.2[0m
[0;32mI (359) heap_init: Initializing. RAM available for dynamic allocation:[0m
[0;32mI (366) heap_init: At 3FCA2928 len 00046DE8 (283 KiB): RAM[0m
[0;32mI (372) heap_init: At 3FCE9710 len 00005724 (21 KiB): RAM[0m
[0;32mI (378) heap_init: At 3FCF0000 len 00008000 (32 KiB): DRAM[0m
[0;32mI (385) heap_init: At 600FE010 len 00001FD8 (7 KiB): RTCRAM[0m
[0;32mI (392) spi_flash: detected chip: boya[0m
[0;32mI (395) spi_flash: flash io: dio[0m
[0;32mI (400) sleep: Configure to isolate all GPIO pins in sleep state[0m
[0;32mI (406) sleep: Enable automatic switching of GPIO sleep configuration[0m
[0;32mI (413) main_task: Started on CPU0[0m
[0;32mI (423) main_task: Calling app_main()[0m
[0;32mI (423) SYS: REBOOT[0m
Build at Mar 23 2025 09:35:40
[0;32mI (1223) NVS: Initialze NVS[0m
 - WiFi SSID: SianAP
 - WiFi Password: sian79917
 - MQTT URL: mqtts://192.168.1.108
 - MQTT Username: ghost29083
 - MQTT Password: 123456789
 - Measurement publish period (seconds): 60
 - UTC: CST-8
 - DeviceSerial: 123
 - OTA_URL: 
[0;32mI (1293) SPIFFS: SPIFFS Mounted.[0m
[0;32mI (1293) SYS: Initialize LED[0m
[0;32mI (1293) NRF24: CONFIG_MISO_GPIO=12[0m
[0;32mI (1293) NRF24: CONFIG_MOSI_GPIO=11[0m
[0;32mI (1293) NRF24: CONFIG_SCLK_GPIO=10[0m
[0;32mI (1303) NRF24: CONFIG_CE_GPIO=8[0m
[0;32mI (1303) NRF24: CONFIG_CSN_GPIO=9[0m
[0;32mI (1303) gpio: GPIO[8]| InputEn: 0| OutputEn: 0| OpenDrain: 0| Pullup: 1| Pulldown: 0| Intr:0 [0m
[0;32mI (1313) gpio: GPIO[9]| InputEn: 0| OutputEn: 0| OpenDrain: 0| Pullup: 1| Pulldown: 0| Intr:0 [0m
[0;32mI (1323) NRF24: spi_bus_initialize=0[0m
[0;32mI (1333) NRF24: spi_bus_add_device=0[0m
[0;32mI (1333) SENDER: Start[0m
[0;33mW (1333) SENDER: Set RF Data Ratio to 250KBps[0m
[0;33mW (1343) SENDER: CONFIG_RETRANSMIT_DELAY=0[0m
================ SPI Configuration ================
CSN Pin  	 = GPIO9
CE Pin		 = GPIO8
Clock Speed	 = 4000000
================ NRF Configuration ================
STATUS		 = 0x0e RX_DR=0 TX_DS=0 MAX_RT=0 RX_P_NO=7 TX_FULL=0
RX_ADDR_P0-1	 = 0x464748494a 0x464748494a
RX_ADDR_P2-5	 = 0xc3 0xc4 0xc5 0xc6
TX_ADDR		 = 0x464748494a
RX_PW_P0-6	 = 0x20 0x20 0x00 0x00 0x00 0x00
EN_AA		 = 0x3f
EN_RXADDR	 = 0x03
RF_CH		 = 0x5a
RF_SETUP	 = 0x27
CONFIG		 = 0x2b
DYNPD/FEATURE	 = 0x00 0x00
Data Rate	 = 250Kbps
CRC Length	 = 8 bits
PA Power	 = PA_MAX
Retransmit	 = 250 us
[0;32mI (1393) RECEVIER: Start[0m
[0;32mI (1393) SENDER: Wait for sending.....[0m
[0;33mW (1403) RECEVIER: Set RF Data Ratio to 250KBps[0m
[0;33mW (1403) SENDER: Send fail:[0m
[0;33mW (1413) RECEVIER: CONFIG_RETRANSMIT_DELAY=0[0m
================ SPI Configuration ================
CSN Pin  	 = GPIO9
CE Pin		 = GPIO8
Clock Speed	 = 4000000
================ NRF Configuration ================
STATUS		 = 0x0e RX_DR=0 TX_DS=0 MAX_RT=0 RX_P_NO=7 TX_FULL=0
RX_ADDR_P0-1	 = 0x464748494a 0x464748494a
RX_ADDR_P2-5	 = 0xc3 0xc4 0xc5 0xc6
TX_ADDR		 = 0x464748494a
RX_PW_P0-6	 = 0x20 0x20 0x00 0x00 0x00 0x00
EN_AA		 = 0x3f
EN_RXADDR	 = 0x03
RF_CH		 = 0x5a
RF_SETUP	 = 0x27
CONFIG		 = 0x2b
DYNPD/FEATURE	 = 0x00 0x00
Data Rate	 = 250Kbps
CRC Length	 = 8 bits
PA Power	 = PA_MAX
Retransmit	 = 250 us
[0;32mI (1473) RECEVIER: Listening...[0m
Handling WIFI connections.
[0;32mI (1473) pp: pp rom version: e7ae62f[0m
[0;32mI (1483) net80211: net80211 rom version: e7ae62f[0m
I (1493) wifi:wifi driver task: 3fcafafc, prio:23, stack:6656, core=0
I (1503) wifi:wifi firmware version: a9f5b59
I (1503) wifi:wifi certification version: v7.0
I (1503) wifi:config NVS flash: enabled
I (1503) wifi:config nano formating: disabled
I (1513) wifi:Init data frame dynamic rx buffer num: 32
I (1513) wifi:Init static rx mgmt buffer num: 5
I (1523) wifi:Init management short buffer num: 32
I (1523) wifi:Init static tx buffer num: 16
I (1533) wifi:Init static tx FG buffer num: 2
I (1533) wifi:Init static rx buffer size: 1600
I (1533) wifi:Init static rx buffer num: 10
I (1543) wifi:Init dynamic rx buffer num: 32
[0;32mI (1543) wifi_init: rx ba win: 6[0m
[0;32mI (1553) wifi_init: tcpip mbox: 32[0m
[0;32mI (1553) wifi_init: udp mbox: 6[0m
[0;32mI (1553) wifi_init: tcp mbox: 6[0m
[0;32mI (1563) wifi_init: tcp tx win: 5760[0m
[0;32mI (1563) wifi_init: tcp rx win: 5760[0m
[0;32mI (1573) wifi_init: tcp mss: 1440[0m
[0;32mI (1573) wifi_init: WiFi IRAM OP enabled[0m
[0;32mI (1573) wifi_init: WiFi RX IRAM OP enabled[0m
[0;32mI (1593) phy_init: phy_version 640,cd64a1a,Jan 24 2024,17:28:12[0m
I (1623) wifi:mode : sta (f0:9e:9e:11:53:38) + softAP (f0:9e:9e:11:53:39)
I (1623) wifi:enable tsf
I (1623) wifi:Total power save buffer number: 8
I (1633) wifi:Init max length of beacon: 752/752
I (1633) wifi:Init max length of beacon: 752/752
[0;32mI (1633) WIFI: Wi-Fi enableï¼Œ Starting connect...[0m
[0;32mI (1643) esp_netif_lwip: DHCP server started on interface WIFI_AP_DEF with IP: 192.168.4.1[0m
[0;32mI (2413) SENDER: Wait for sending.....[0m
[0;33mW (2423) NRF24: Maximum number of TX retries interrupt[0m
[0;33mW (2423) SENDER: Send fail:[0m
I (3223) wifi:ap channel adjust o:1,1 n:11,2
I (3223) wifi:new:<11,0>, old:<1,1>, ap:<11,2>, sta:<11,0>, prof:1
I (3223) wifi:state: init -> auth (b0)

assert failed: spi_device_transmit spi_master.c:1023 (ret_trans == trans_desc)


Backtrace: 0x40375ade:0x3fca9a50 0x4037cced:0x3fca9a70 0x403858f9:0x3fca9a90 0x42015e5d:0x3fca9bb0 0x4200c37d:0x3fca9be0 0x4200c395:0x3fca9c30 0x4200c3db:0x3fca9c60 0x4200c558:0x3fca9c80 0x4200c5bf:0x3fca9ca0 0x4200bfea:0x3fca9cc0 0x4037d7f9:0x3fca9d00




ELF file SHA256: 4bd69406c

Rebooting...
ESP-ROM:esp32s3-20210327
Build:Mar 27 2021
rst:0xc (RTC_SW_CPU_RST),boot:0x8 (SPI_FAST_FLASH_BOOT)
Saved PC:0x4204b220
SPIWP:0xee
mode:DIO, clock div:1
load:0x3fce3810,len:0x178c
load:0x403c9700,len:0x4
load:0x403c9704,len:0xcbc
load:0x403cc700,len:0x2da0
SHA-256 comparison failed:
Calculated: f6480e415161efbbcec0fe27d1780e22870b6d8f0027b8455711d0f74c133f59
Expected: ffffffffffffffffffffffffffffffffffffffffffffffffffffffffffffffff
Attempting to boot anyway...
entry 0x403c9914
[0;32mI (49) boot: ESP-IDF v5.2.1-dirty 2nd stage bootloader[0m
[0;32mI (50) boot: compile time Mar 22 2025 23:26:23[0m
[0;32mI (50) boot: Multicore bootloader[0m
[0;32mI (53) boot: chip revision: v0.2[0m
[0;32mI (57) boot.esp32s3: Boot SPI Speed : 80MHz[0m
[0;32mI (62) boot.esp32s3: SPI Mode       : DIO[0m
[0;32mI (67) boot.esp32s3: SPI Flash Size : 16MB[0m
[0;32mI (71) boot: Enabling RNG early entropy source...[0m
[0;32mI (77) boot: Partition Table:[0m
[0;32mI (80) boot: ## Label            Usage          Type ST Offset   Length[0m
[0;32mI (88) boot:  0 nvs              WiFi data        01 02 00009000 00006000[0m
[0;32mI (95) boot:  1 phy_init         RF data          01 01 0000f000 00001000[0m
[0;32mI (103) boot:  2 otadata          OTA data         01 00 00010000 00002000[0m
[0;32mI (110) boot:  3 factory          factory app      00 00 00020000 00200000[0m
[0;32mI (118) boot:  4 ota_0            OTA app          00 10 00220000 00200000[0m
[0;32mI (125) boot:  5 ota_1            OTA app          00 11 00420000 00200000[0m
[0;32mI (133) boot:  6 spiffs           Unknown data     01 82 00620000 00080000[0m
[0;32mI (140) boot: End of partition table[0m
[0;32mI (145) boot: Defaulting to factory image[0m
[0;32mI (149) esp_image: segment 0: paddr=00020020 vaddr=3c0c0020 size=2dddch (187868) map[0m
[0;32mI (179) esp_image: segment 1: paddr=0004de04 vaddr=3fc99d00 size=02214h (  8724) load[0m
[0;32mI (180) esp_image: segment 2: paddr=00050020 vaddr=42000020 size=b0998h (723352) map[0m
[0;32mI (265) esp_image: segment 3: paddr=001009c0 vaddr=3fc9bf14 size=026e4h (  9956) load[0m
[0;32mI (267) esp_image: segment 4: paddr=001030ac vaddr=40374000 size=15c00h ( 89088) load[0m
[0;32mI (294) boot: Loaded app from partition at offset 0x20000[0m
[0;32mI (294) boot: Disabling RNG early entropy source...[0m
[0;32mI (305) cpu_start: Multicore app[0m
[0;32mI (315) cpu_start: Pro cpu start user code[0m
[0;32mI (315) cpu_start: cpu freq: 240000000 Hz[0m
[0;32mI (315) cpu_start: Application information:[0m
[0;32mI (318) cpu_start: Project name:     main[0m
[0;32mI (323) cpu_start: App version:      0.0.1[0m
[0;32mI (328) cpu_start: Compile time:     Mar 23 2025 09:34:29[0m
[0;32mI (334) cpu_start: ELF file SHA256:  4bd69406c...[0m
[0;32mI (339) cpu_start: ESP-IDF:          v5.2.1-dirty[0m
[0;32mI (345) cpu_start: Min chip rev:     v0.0[0m
[0;32mI (349) cpu_start: Max chip rev:     v0.99 [0m
[0;32mI (354) cpu_start: Chip rev:         v0.2[0m
[0;32mI (359) heap_init: Initializing. RAM available for dynamic allocation:[0m
[0;32mI (366) heap_init: At 3FCA2928 len 00046DE8 (283 KiB): RAM[0m
[0;32mI (372) heap_init: At 3FCE9710 len 00005724 (21 KiB): RAM[0m
[0;32mI (378) heap_init: At 3FCF0000 len 00008000 (32 KiB): DRAM[0m
[0;32mI (385) heap_init: At 600FE010 len 00001FD8 (7 KiB): RTCRAM[0m
[0;32mI (392) spi_flash: detected chip: boya[0m
[0;32mI (395) spi_flash: flash io: dio[0m
[0;32mI (400) sleep: Configure to isolate all GPIO pins in sleep state[0m
[0;32mI (406) sleep: Enable automatic switching of GPIO sleep configuration[0m
[0;32mI (413) main_task: Started on CPU0[0m
[0;32mI (423) main_task: Calling app_main()[0m
[0;32mI (423) SYS: REBOOT[0m
Build at Mar 23 2025 09:35:40
[0;32mI (1173) NVS: Initialze NVS[0m
 - WiFi SSID: SianAP
 - WiFi Password: sian79917
 - MQTT URL: mqtts://192.168.1.108
 - MQTT Username: ghost29083
 - MQTT Password: 123456789
 - Measurement publish period (seconds): 60
 - UTC: CST-8
 - DeviceSerial: 123
 - OTA_URL: 
[0;32mI (1243) SPIFFS: SPIFFS Mounted.[0m
[0;32mI (1243) SYS: Initialize LED[0m
[0;32mI (1243) NRF24: CONFIG_MISO_GPIO=12[0m
[0;32mI (1243) NRF24: CONFIG_MOSI_GPIO=11[0m
[0;32mI (1243) NRF24: CONFIG_SCLK_GPIO=10[0m
[0;32mI (1253) NRF24: CONFIG_CE_GPIO=8[0m
[0;32mI (1253) NRF24: CONFIG_CSN_GPIO=9[0m
[0;32mI (1253) gpio: GPIO[8]| InputEn: 0| OutputEn: 0| OpenDrain: 0| Pullup: 1| Pulldown: 0| Intr:0 [0m
[0;32mI (1263) gpio: GPIO[9]| InputEn: 0| OutputEn: 0| OpenDrain: 0| Pullup: 1| Pulldown: 0| Intr:0 [0m
[0;32mI (1273) NRF24: spi_bus_initialize=0[0m
[0;32mI (1283) NRF24: spi_bus_add_device=0[0m
[0;32mI (1283) SENDER: Start[0m
[0;33mW (1283) SENDER: Set RF Data Ratio to 250KBps[0m
[0;33mW (1293) SENDER: CONFIG_RETRANSMIT_DELAY=0[0m
================ SPI Configuration ================
CSN Pin  	 = GPIO9
CE Pin		 = GPIO8
Clock Speed	 = 4000000
================ NRF Configuration ================
STATUS		 = 0x0e RX_DR=0 TX_DS=0 MAX_RT=0 RX_P_NO=7 TX_FULL=0
RX_ADDR_P0-1	 = 0x464748494a 0x464748494a
RX_ADDR_P2-5	 = 0xc3 0xc4 0xc5 0xc6
TX_ADDR		 = 0x464748494a
RX_PW_P0-6	 = 0x20 0x20 0x00 0x00 0x00 0x00
EN_AA		 = 0x3f
EN_RXADDR	 = 0x03
RF_CH		 = 0x5a
RF_SETUP	 = 0x27
CONFIG		 = 0x2b
DYNPD/FEATURE	 = 0x00 0x00
Data Rate	 = 250Kbps
CRC Length	 = 8 bits
PA Power	 = PA_MAX
Retransmit	 = 250 us
[0;32mI (1343) RECEVIER: Start[0m
[0;32mI (1343) SENDER: Wait for sending.....[0m
[0;33mW (1353) RECEVIER: Set RF Data Ratio to 250KBps[0m
[0;33mW (1353) SENDER: Send fail:[0m
[0;33mW (1363) RECEVIER: CONFIG_RETRANSMIT_DELAY=0[0m
================ SPI Configuration ================
CSN Pin  	 = GPIO9
CE Pin		 = GPIO8
Clock Speed	 = 4000000
================ NRF Configuration ================
STATUS		 = 0x0e RX_DR=0 TX_DS=0 MAX_RT=0 RX_P_NO=7 TX_FULL=0
RX_ADDR_P0-1	 = 0x464748494a 0x464748494a
RX_ADDR_P2-5	 = 0xc3 0xc4 0xc5 0xc6
TX_ADDR		 = 0x464748494a
RX_PW_P0-6	 = 0x20 0x20 0x00 0x00 0x00 0x00
EN_AA		 = 0x3f
EN_RXADDR	 = 0x03
RF_CH		 = 0x5a
RF_SETUP	 = 0x27
CONFIG		 = 0x2b
DYNPD/FEATURE	 = 0x00 0x00
Data Rate	 = 250Kbps
CRC Length	 = 8 bits
PA Power	 = PA_MAX
Retransmit	 = 250 us
[0;32mI (1423) RECEVIER: Listening...[0m
Handling WIFI connections.
[0;32mI (1423) pp: pp rom version: e7ae62f[0m
[0;32mI (1433) net80211: net80211 rom version: e7ae62f[0m
I (1443) wifi:wifi driver task: 3fcafafc, prio:23, stack:6656, core=0
I (1453) wifi:wifi firmware version: a9f5b59
I (1453) wifi:wifi certification version: v7.0
I (1453) wifi:config NVS flash: enabled
I (1453) wifi:config nano formating: disabled
I (1463) wifi:Init data frame dynamic rx buffer num: 32
I (1463) wifi:Init static rx mgmt buffer num: 5
I (1473) wifi:Init management short buffer num: 32
I (1473) wifi:Init static tx buffer num: 16
I (1483) wifi:Init static tx FG buffer num: 2
I (1483) wifi:Init static rx buffer size: 1600
I (1483) wifi:Init static rx buffer num: 10
I (1493) wifi:Init dynamic rx buffer num: 32
[0;32mI (1493) wifi_init: rx ba win: 6[0m
[0;32mI (1503) wifi_init: tcpip mbox: 32[0m
[0;32mI (1503) wifi_init: udp mbox: 6[0m
[0;32mI (1503) wifi_init: tcp mbox: 6[0m
[0;32mI (1513) wifi_init: tcp tx win: 5760[0m
[0;32mI (1513) wifi_init: tcp rx win: 5760[0m
[0;32mI (1523) wifi_init: tcp mss: 1440[0m
[0;32mI (1523) wifi_init: WiFi IRAM OP enabled[0m
[0;32mI (1523) wifi_init: WiFi RX IRAM OP enabled[0m
[0;32mI (1543) phy_init: phy_version 640,cd64a1a,Jan 24 2024,17:28:12[0m
I (1573) wifi:mode : sta (f0:9e:9e:11:53:38) + softAP (f0:9e:9e:11:53:39)
I (1573) wifi:enable tsf
I (1583) wifi:Total power save buffer number: 8
I (1583) wifi:Init max length of beacon: 752/752
I (1583) wifi:Init max length of beacon: 752/752
[0;32mI (1583) WIFI: Wi-Fi enableï¼Œ Starting connect...[0m
[0;32mI (1593) esp_netif_lwip: DHCP server started on interface WIFI_AP_DEF with IP: 192.168.4.1[0m
[0;32mI (2363) SENDER: Wait for sending.....[0m
[0;33mW (2373) NRF24: Maximum number of TX retries interrupt[0m
[0;33mW (2373) SENDER: Send fail:[0m
I (3193) wifi:ap channel adjust o:1,1 n:11,2
I (3193) wifi:new:<11,0>, old:<1,1>, ap:<11,2>, sta:<11,0>, prof:1
I (3193) wifi:state: init -> auth (b0)

assert failed: spi_device_transmit spi_master.c:1023 (ret_trans == trans_desc)


Backtrace: 0x40375ade:0x3fca9a50 0x4037cced:0x3fca9a70 0x403858f9:0x3fca9a90 0x42015e5d:0x3fca9bb0 0x4200c37d:0x3fca9be0 0x4200c395:0x3fca9c30 0x4200c3db:0x3fca9c60 0x4200c558:0x3fca9c80 0x4200c5bf:0x3fca9ca0 0x4200bfea:0x3fca9cc0 0x4037d7f9:0x3fca9d00




ELF file SHA256: 4bd69406c

Rebooting...
ESP-ROM:esp32s3-20210327
Build:Mar 27 2021
rst:0xc (RTC_SW_CPU_RST),boot:0x8 (SPI_FAST_FLASH_BOOT)
Saved PC:0x42048a07
SPIWP:0xee
mode:DIO, clock div:1
load:0x3fce3810,len:0x178c
load:0x403c9700,len:0x4
load:0x403c9704,len:0xcbc
load:0x403cc700,len:0x2da0
SHA-256 comparison failed:
Calculated: f6480e415161efbbcec0fe27d1780e22870b6d8f0027b8455711d0f74c133f59
Expected: ffffffffffffffffffffffffffffffffffffffffffffffffffffffffffffffff
Attempting to boot anyway...
entry 0x403c9914
[0;32mI (49) boot: ESP-IDF v5.2.1-dirty 2nd stage bootloader[0m
[0;32mI (50) boot: compile time Mar 22 2025 23:26:23[0m
[0;32mI (50) boot: Multicore bootloader[0m
[0;32mI (53) boot: chip revision: v0.2[0m
[0;32mI (57) boot.esp32s3: Boot SPI Speed : 80MHz[0m
[0;32mI (62) boot.esp32s3: SPI Mode       : DIO[0m
[0;32mI (67) boot.esp32s3: SPI Flash Size : 16MB[0m
[0;32mI (71) boot: Enabling RNG early entropy source...[0m
[0;32mI (77) boot: Partition Table:[0m
[0;32mI (80) boot: ## Label            Usage          Type ST Offset   Length[0m
[0;32mI (88) boot:  0 nvs              WiFi data        01 02 00009000 00006000[0m
[0;32mI (95) boot:  1 phy_init         RF data          01 01 0000f000 00001000[0m
[0;32mI (103) boot:  2 otadata          OTA data         01 00 00010000 00002000[0m
[0;32mI (110) boot:  3 factory          factory app      00 00 00020000 00200000[0m
[0;32mI (118) boot:  4 ota_0            OTA app          00 10 00220000 00200000[0m
[0;32mI (125) boot:  5 ota_1            OTA app          00 11 00420000 00200000[0m
[0;32mI (133) boot:  6 spiffs           Unknown data     01 82 00620000 00080000[0m
[0;32mI (140) boot: End of partition table[0m
[0;32mI (145) boot: Defaulting to factory image[0m
[0;32mI (149) esp_image: segment 0: paddr=00020020 vaddr=3c0c0020 size=2dddch (187868) map[0m
[0;32mI (179) esp_image: segment 1: paddr=0004de04 vaddr=3fc99d00 size=02214h (  8724) load[0m
[0;32mI (180) esp_image: segment 2: paddr=00050020 vaddr=42000020 size=b0998h (723352) map[0m
[0;32mI (265) esp_image: segment 3: paddr=001009c0 vaddr=3fc9bf14 size=026e4h (  9956) load[0m
[0;32mI (267) esp_image: segment 4: paddr=001030ac vaddr=40374000 size=15c00h ( 89088) load[0m
[0;32mI (294) boot: Loaded app from partition at offset 0x20000[0m
[0;32mI (294) boot: Disabling RNG early entropy source...[0m
[0;32mI (305) cpu_start: Multicore app[0m
[0;32mI (315) cpu_start: Pro cpu start user code[0m
[0;32mI (315) cpu_start: cpu freq: 240000000 Hz[0m
[0;32mI (315) cpu_start: Application information:[0m
[0;32mI (318) cpu_start: Project name:     main[0m
[0;32mI (323) cpu_start: App version:      0.0.1[0m
[0;32mI (328) cpu_start: Compile time:     Mar 23 2025 09:34:29[0m
[0;32mI (334) cpu_start: ELF file SHA256:  4bd69406c...[0m
[0;32mI (339) cpu_start: ESP-IDF:          v5.2.1-dirty[0m
[0;32mI (345) cpu_start: Min chip rev:     v0.0[0m
[0;32mI (349) cpu_start: Max chip rev:     v0.99 [0m
[0;32mI (354) cpu_start: Chip rev:         v0.2[0m
[0;32mI (359) heap_init: Initializing. RAM available for dynamic allocation:[0m
[0;32mI (366) heap_init: At 3FCA2928 len 00046DE8 (283 KiB): RAM[0m
[0;32mI (372) heap_init: At 3FCE9710 len 00005724 (21 KiB): RAM[0m
[0;32mI (378) heap_init: At 3FCF0000 len 00008000 (32 KiB): DRAM[0m
[0;32mI (385) heap_init: At 600FE010 len 00001FD8 (7 KiB): RTCRAM[0m
[0;32mI (392) spi_flash: detected chip: boya[0m
[0;32mI (395) spi_flash: flash io: dio[0m
[0;32mI (400) sleep: Configure to isolate all GPIO pins in sleep state[0m
[0;32mI (406) sleep: Enable automatic switching of GPIO sleep configuration[0m
[0;32mI (413) main_task: Started on CPU0[0m
[0;32mI (423) main_task: Calling app_main()[0m
[0;32mI (423) SYS: REBOOT[0m
Build at Mar 23 2025 09:35:40
[0;32mI (1313) NVS: Initialze NVS[0m
 - WiFi SSID: SianAP
 - WiFi Password: sian79917
 - MQTT URL: mqtts://192.168.1.108
 - MQTT Username: ghost29083
 - MQTT Password: 123456789
 - Measurement publish period (seconds): 60
 - UTC: CST-8
 - DeviceSerial: 123
 - OTA_URL: 
[0;32mI (1383) SPIFFS: SPIFFS Mounted.[0m
[0;32mI (1383) SYS: Initialize LED[0m
[0;32mI (1383) NRF24: CONFIG_MISO_GPIO=12[0m
[0;32mI (1383) NRF24: CONFIG_MOSI_GPIO=11[0m
[0;32mI (1383) NRF24: CONFIG_SCLK_GPIO=10[0m
[0;32mI (1393) NRF24: CONFIG_CE_GPIO=8[0m
[0;32mI (1393) NRF24: CONFIG_CSN_GPIO=9[0m
[0;32mI (1393) gpio: GPIO[8]| InputEn: 0| OutputEn: 0| OpenDrain: 0| Pullup: 1| Pulldown: 0| Intr:0 [0m
[0;32mI (1403) gpio: GPIO[9]| InputEn: 0| OutputEn: 0| OpenDrain: 0| Pullup: 1| Pulldown: 0| Intr:0 [0m
[0;32mI (1413) NRF24: spi_bus_initialize=0[0m
[0;32mI (1423) NRF24: spi_bus_add_device=0[0m
[0;32mI (1423) SENDER: Start[0m
[0;33mW (1423) SENDER: Set RF Data Ratio to 250KBps[0m
[0;33mW (1433) SENDER: CONFIG_RETRANSMIT_DELAY=0[0m
================ SPI Configuration ================
CSN Pin  	 = GPIO9
CE Pin		 = GPIO8
Clock Speed	 = 4000000
================ NRF Configuration ================
STATUS		 = 0x0e RX_DR=0 TX_DS=0 MAX_RT=0 RX_P_NO=7 TX_FULL=0
RX_ADDR_P0-1	 = 0x464748494a 0x464748494a
RX_ADDR_P2-5	 = 0xc3 0xc4 0xc5 0xc6
TX_ADDR		 = 0x464748494a
RX_PW_P0-6	 = 0x20 0x20 0x00 0x00 0x00 0x00
EN_AA		 = 0x3f
EN_RXADDR	 = 0x03
RF_CH		 = 0x5a
RF_SETUP	 = 0x27
CONFIG		 = 0x2b
DYNPD/FEATURE	 = 0x00 0x00
Data Rate	 = 250Kbps
CRC Length	 = 8 bits
PA Power	 = PA_MAX
Retransmit	 = 250 us
[0;32mI (1483) RECEVIER: Start[0m
[0;32mI (1483) SENDER: Wait for sending.....[0m
[0;33mW (1493) RECEVIER: Set RF Data Ratio to 250KBps[0m
[0;33mW (1493) SENDER: Send fail:[0m
[0;33mW (1503) RECEVIER: CONFIG_RETRANSMIT_DELAY=0[0m
================ SPI Configuration ================
CSN Pin  	 = GPIO9
CE Pin		 = GPIO8
Clock Speed	 = 4000000
================ NRF Configuration ================
STATUS		 = 0x0e RX_DR=0 TX_DS=0 MAX_RT=0 RX_P_NO=7 TX_FULL=0
RX_ADDR_P0-1	 = 0x464748494a 0x464748494a
RX_ADDR_P2-5	 = 0xc3 0xc4 0xc5 0xc6
TX_ADDR		 = 0x464748494a
RX_PW_P0-6	 = 0x20 0x20 0x00 0x00 0x00 0x00
EN_AA		 = 0x3f
EN_RXADDR	 = 0x03
RF_CH		 = 0x5a
RF_SETUP	 = 0x27
CONFIG		 = 0x2b
DYNPD/FEATURE	 = 0x00 0x00
Data Rate	 = 250Kbps
CRC Length	 = 8 bits
PA Power	 = PA_MAX
Retransmit	 = 250 us
[0;32mI (1563) RECEVIER: Listening...[0m
Handling WIFI connections.
[0;32mI (1563) pp: pp rom version: e7ae62f[0m
[0;32mI (1573) net80211: net80211 rom version: e7ae62f[0m
I (1583) wifi:wifi driver task: 3fcafafc, prio:23, stack:6656, core=0
I (1593) wifi:wifi firmware version: a9f5b59
I (1593) wifi:wifi certification version: v7.0
I (1593) wifi:config NVS flash: enabled
I (1593) wifi:config nano formating: disabled
I (1603) wifi:Init data frame dynamic rx buffer num: 32
I (1603) wifi:Init static rx mgmt buffer num: 5
I (1613) wifi:Init management short buffer num: 32
I (1613) wifi:Init static tx buffer num: 16
I (1623) wifi:Init static tx FG buffer num: 2
I (1623) wifi:Init static rx buffer size: 1600
I (1623) wifi:Init static rx buffer num: 10
I (1633) wifi:Init dynamic rx buffer num: 32
[0;32mI (1633) wifi_init: rx ba win: 6[0m
[0;32mI (1643) wifi_init: tcpip mbox: 32[0m
[0;32mI (1643) wifi_init: udp mbox: 6[0m
[0;32mI (1643) wifi_init: tcp mbox: 6[0m
[0;32mI (1653) wifi_init: tcp tx win: 5760[0m
[0;32mI (1653) wifi_init: tcp rx win: 5760[0m
[0;32mI (1663) wifi_init: tcp mss: 1440[0m
[0;32mI (1663) wifi_init: WiFi IRAM OP enabled[0m
[0;32mI (1663) wifi_init: WiFi RX IRAM OP enabled[0m
[0;32mI (1683) phy_init: phy_version 640,cd64a1a,Jan 24 2024,17:28:12[0m
I (1733) wifi:mode : sta (f0:9e:9e:11:53:38) + softAP (f0:9e:9e:11:53:39)
I (1733) wifi:enable tsf
I (1733) wifi:Total power save buffer number: 8
I (1733) wifi:Init max length of beacon: 752/752
I (1733) wifi:Init max length of beacon: 752/752
[0;32mI (1743) WIFI: Wi-Fi enableï¼Œ Starting connect...[0m
[0;32mI (1743) esp_netif_lwip: DHCP server started on interface WIFI_AP_DEF with IP: 192.168.4.1[0m
[0;32mI (2503) SENDER: Wait for sending.....[0m
[0;33mW (2513) NRF24: Maximum number of TX retries interrupt[0m
[0;33mW (2513) SENDER: Send fail:[0m
I (3313) wifi:ap channel adjust o:1,1 n:11,2
I (3313) wifi:new:<11,0>, old:<1,1>, ap:<11,2>, sta:<11,0>, prof:1
I (3323) wifi:state: init -> auth (b0)

assert failed: spi_device_transmit spi_master.c:1023 (ret_trans == trans_desc)


Backtrace: 0x40375ade:0x3fca9a50 0x4037cced:0x3fca9a70 0x403858f9:0x3fca9a90 0x42015e5d:0x3fca9bb0 0x4200c37d:0x3fca9be0 0x4200c395:0x3fca9c30 0x4200c3db:0x3fca9c60 0x4200c558:0x3fca9c80 0x4200c5bf:0x3fca9ca0 0x4200bfea:0x3fca9cc0 0x4037d7f9:0x3fca9d00




ELF file SHA256: 4bd69406c

Rebooting...
ESP-ROM:esp32s3-20210327
Build:Mar 27 2021
rst:0xc (RTC_SW_CPU_RST),boot:0x8 (SPI_FAST_FLASH_BOOT)
Saved PC:0x42051cf2
SPIWP:0xee
mode:DIO, clock div:1
load:0x3fce3810,len:0x178c
load:0x403c9700,len:0x4
load:0x403c9704,len:0xcbc
load:0x403cc700,len:0x2da0
SHA-256 comparison failed:
Calculated: f6480e415161efbbcec0fe27d1780e22870b6d8f0027b8455711d0f74c133f59
Expected: ffffffffffffffffffffffffffffffffffffffffffffffffffffffffffffffff
Attempting to boot anyway...
entry 0x403c9914
[0;32mI (49) boot: ESP-IDF v5.2.1-dirty 2nd stage bootloader[0m
[0;32mI (50) boot: compile time Mar 22 2025 23:26:23[0m
[0;32mI (50) boot: Multicore bootloader[0m
[0;32mI (53) boot: chip revision: v0.2[0m
[0;32mI (57) boot.esp32s3: Boot SPI Speed : 80MHz[0m
[0;32mI (62) boot.esp32s3: SPI Mode       : DIO[0m
[0;32mI (67) boot.esp32s3: SPI Flash Size : 16MB[0m
[0;32mI (71) boot: Enabling RNG early entropy source...[0m
[0;32mI (77) boot: Partition Table:[0m
[0;32mI (80) boot: ## Label            Usage          Type ST Offset   Length[0m
[0;32mI (88) boot:  0 nvs              WiFi data        01 02 00009000 00006000[0m
[0;32mI (95) boot:  1 phy_init         RF data          01 01 0000f000 00001000[0m
[0;32mI (103) boot:  2 otadata          OTA data         01 00 00010000 00002000[0m
[0;32mI (110) boot:  3 factory          factory app      00 00 00020000 00200000[0m
[0;32mI (118) boot:  4 ota_0            OTA app          00 10 00220000 00200000[0m
[0;32mI (125) boot:  5 ota_1            OTA app          00 11 00420000 00200000[0m
[0;32mI (133) boot:  6 spiffs           Unknown data     01 82 00620000 00080000[0m
[0;32mI (140) boot: End of partition table[0m
[0;32mI (145) boot: Defaulting to factory image[0m
[0;32mI (149) esp_image: segment 0: paddr=00020020 vaddr=3c0c0020 size=2dddch (187868) map[0m
[0;32mI (179) esp_image: segment 1: paddr=0004de04 vaddr=3fc99d00 size=02214h (  8724) load[0m
[0;32mI (180) esp_image: segment 2: paddr=00050020 vaddr=42000020 size=b0998h (723352) map[0m
[0;32mI (265) esp_image: segment 3: paddr=001009c0 vaddr=3fc9bf14 size=026e4h (  9956) load[0m
[0;32mI (267) esp_image: segment 4: paddr=001030ac vaddr=40374000 size=15c00h ( 89088) load[0m
[0;32mI (294) boot: Loaded app from partition at offset 0x20000[0m
[0;32mI (294) boot: Disabling RNG early entropy source...[0m
[0;32mI (305) cpu_start: Multicore app[0m
[0;32mI (315) cpu_start: Pro cpu start user code[0m
[0;32mI (315) cpu_start: cpu freq: 240000000 Hz[0m
[0;32mI (315) cpu_start: Application information:[0m
[0;32mI (318) cpu_start: Project name:     main[0m
[0;32mI (323) cpu_start: App version:      0.0.1[0m
[0;32mI (328) cpu_start: Compile time:     Mar 23 2025 09:34:29[0m
[0;32mI (334) cpu_start: ELF file SHA256:  4bd69406c...[0m
[0;32mI (339) cpu_start: ESP-IDF:          v5.2.1-dirty[0m
[0;32mI (345) cpu_start: Min chip rev:     v0.0[0m
[0;32mI (349) cpu_start: Max chip rev:     v0.99 [0m
[0;32mI (354) cpu_start: Chip rev:         v0.2[0m
[0;32mI (359) heap_init: Initializing. RAM available for dynamic allocation:[0m
[0;32mI (366) heap_init: At 3FCA2928 len 00046DE8 (283 KiB): RAM[0m
[0;32mI (372) heap_init: At 3FCE9710 len 00005724 (21 KiB): RAM[0m
[0;32mI (378) heap_init: At 3FCF0000 len 00008000 (32 KiB): DRAM[0m
[0;32mI (385) heap_init: At 600FE010 len 00001FD8 (7 KiB): RTCRAM[0m
[0;32mI (392) spi_flash: detected chip: boya[0m
[0;32mI (395) spi_flash: flash io: dio[0m
[0;32mI (400) sleep: Configure to isolate all GPIO pins in sleep state[0m
[0;32mI (406) sleep: Enable automatic switching of GPIO sleep configuration[0m
[0;32mI (413) main_task: Started on CPU0[0m
[0;32mI (423) main_task: Calling app_main()[0m
[0;32mI (423) SYS: REBOOT[0m
Build at Mar 23 2025 09:35:40
[0;32mI (1373) NVS: Initialze NVS[0m
 - WiFi SSID: SianAP
 - WiFi Password: sian79917
 - MQTT URL: mqtts://192.168.1.108
 - MQTT Username: ghost29083
 - MQTT Password: 123456789
 - Measurement publish period (seconds): 60
 - UTC: CST-8
 - DeviceSerial: 123
 - OTA_URL: 
[0;32mI (1443) SPIFFS: SPIFFS Mounted.[0m
[0;32mI (1443) SYS: Initialize LED[0m
[0;32mI (1443) NRF24: CONFIG_MISO_GPIO=12[0m
[0;32mI (1443) NRF24: CONFIG_MOSI_GPIO=11[0m
[0;32mI (1443) NRF24: CONFIG_SCLK_GPIO=10[0m
[0;32mI (1453) NRF24: CONFIG_CE_GPIO=8[0m
[0;32mI (1453) NRF24: CONFIG_CSN_GPIO=9[0m
[0;32mI (1453) gpio: GPIO[8]| InputEn: 0| OutputEn: 0| OpenDrain: 0| Pullup: 1| Pulldown: 0| Intr:0 [0m
[0;32mI (1463) gpio: GPIO[9]| InputEn: 0| OutputEn: 0| OpenDrain: 0| Pullup: 1| Pulldown: 0| Intr:0 [0m
[0;32mI (1473) NRF24: spi_bus_initialize=0[0m
[0;32mI (1483) NRF24: spi_bus_add_device=0[0m
[0;32mI (1483) SENDER: Start[0m
[0;33mW (1483) SENDER: Set RF Data Ratio to 250KBps[0m
[0;33mW (1493) SENDER: CONFIG_RETRANSMIT_DELAY=0[0m
================ SPI Configuration ================
CSN Pin  	 = GPIO9
CE Pin		 = GPIO8
Clock Speed	 = 4000000
================ NRF Configuration ================
STATUS		 = 0x0e RX_DR=0 TX_DS=0 MAX_RT=0 RX_P_NO=7 TX_FULL=0
RX_ADDR_P0-1	 = 0x464748494a 0x464748494a
RX_ADDR_P2-5	 = 0xc3 0xc4 0xc5 0xc6
TX_ADDR		 = 0x464748494a
RX_PW_P0-6	 = 0x20 0x20 0x00 0x00 0x00 0x00
EN_AA		 = 0x3f
EN_RXADDR	 = 0x03
RF_CH		 = 0x5a
RF_SETUP	 = 0x27
CONFIG		 = 0x2b
DYNPD/FEATURE	 = 0x00 0x00
Data Rate	 = 250Kbps
CRC Length	 = 8 bits
PA Power	 = PA_MAX
Retransmit	 = 250 us
[0;32mI (1543) RECEVIER: Start[0m
[0;32mI (1543) SENDER: Wait for sending.....[0m
[0;33mW (1553) RECEVIER: Set RF Data Ratio to 250KBps[0m
[0;33mW (1553) SENDER: Send fail:[0m
[0;33mW (1563) RECEVIER: CONFIG_RETRANSMIT_DELAY=0[0m
================ SPI Configuration ================
CSN Pin  	 = GPIO9
CE Pin		 = GPIO8
Clock Speed	 = 4000000
================ NRF Configuration ================
STATUS		 = 0x0e RX_DR=0 TX_DS=0 MAX_RT=0 RX_P_NO=7 TX_FULL=0
RX_ADDR_P0-1	 = 0x464748494a 0x464748494a
RX_ADDR_P2-5	 = 0xc3 0xc4 0xc5 0xc6
TX_ADDR		 = 0x464748494a
RX_PW_P0-6	 = 0x20 0x20 0x00 0x00 0x00 0x00
EN_AA		 = 0x3f
EN_RXADDR	 = 0x03
RF_CH		 = 0x5a
RF_SETUP	 = 0x27
CONFIG		 = 0x2b
DYNPD/FEATURE	 = 0x00 0x00
Data Rate	 = 250Kbps
CRC Length	 = 8 bits
PA Power	 = PA_MAX
Retransmit	 = 250 us
[0;32mI (1623) RECEVIER: Listening...[0m
Handling WIFI connections.
[0;32mI (1623) pp: pp rom version: e7ae62f[0m
[0;32mI (1633) net80211: net80211 rom version: e7ae62f[0m
I (1643) wifi:wifi driver task: 3fcafafc, prio:23, stack:6656, core=0
I (1653) wifi:wifi firmware version: a9f5b59
I (1653) wifi:wifi certification version: v7.0
I (1653) wifi:config NVS flash: enabled
I (1653) wifi:config nano formating: disabled
I (1663) wifi:Init data frame dynamic rx buffer num: 32
I (1663) wifi:Init static rx mgmt buffer num: 5
I (1673) wifi:Init management short buffer num: 32
I (1673) wifi:Init static tx buffer num: 16
I (1683) wifi:Init static tx FG buffer num: 2
I (1683) wifi:Init static rx buffer size: 1600
I (1683) wifi:Init static rx buffer num: 10
I (1693) wifi:Init dynamic rx buffer num: 32
[0;32mI (1693) wifi_init: rx ba win: 6[0m
[0;32mI (1703) wifi_init: tcpip mbox: 32[0m
[0;32mI (1703) wifi_init: udp mbox: 6[0m
[0;32mI (1703) wifi_init: tcp mbox: 6[0m
[0;32mI (1713) wifi_init: tcp tx win: 5760[0m
[0;32mI (1713) wifi_init: tcp rx win: 5760[0m
[0;32mI (1723) wifi_init: tcp mss: 1440[0m
[0;32mI (1723) wifi_init: WiFi IRAM OP enabled[0m
[0;32mI (1723) wifi_init: WiFi RX IRAM OP enabled[0m
[0;32mI (1743) phy_init: phy_version 640,cd64a1a,Jan 24 2024,17:28:12[0m
I (1783) wifi:mode : sta (f0:9e:9e:11:53:38) + softAP (f0:9e:9e:11:53:39)
I (1783) wifi:enable tsf
I (1783) wifi:Total power save buffer number: 8
I (1783) wifi:Init max length of beacon: 752/752
I (1783) wifi:Init max length of beacon: 752/752
[0;32mI (1793) WIFI: Wi-Fi enableï¼Œ Starting connect...[0m
[0;32mI (1793) esp_netif_lwip: DHCP server started on interface WIFI_AP_DEF with IP: 192.168.4.1[0m
[0;32mI (2563) SENDER: Wait for sending.....[0m
[0;33mW (2573) NRF24: Maximum number of TX retries interrupt[0m
[0;33mW (2573) SENDER: Send fail:[0m
I (3403) wifi:ap channel adjust o:1,1 n:11,2
I (3403) wifi:new:<11,0>, old:<1,1>, ap:<11,2>, sta:<11,0>, prof:1
I (3403) wifi:state: init -> auth (b0)

assert failed: spi_device_transmit spi_master.c:1023 (ret_trans == trans_desc)


Backtrace: 0x40375ade:0x3fca9a50 0x4037cced:0x3fca9a70 0x403858f9:0x3fca9a90 0x42015e5d:0x3fca9bb0 0x4200c37d:0x3fca9be0 0x4200c395:0x3fca9c30 0x4200c3db:0x3fca9c60 0x4200c558:0x3fca9c80 0x4200c5bf:0x3fca9ca0 0x4200bfea:0x3fca9cc0 0x4037d7f9:0x3fca9d00




ELF file SHA256: 4bd69406c

Rebooting...
ESP-ROM:esp32s3-20210327
Build:Mar 27 2021
rst:0xc (RTC_SW_CPU_RST),boot:0x8 (SPI_FAST_FLASH_BOOT)
Saved PC:0x4207aaf3
SPIWP:0xee
mode:DIO, clock div:1
load:0x3fce3810,len:0x178c
load:0x403c9700,len:0x4
load:0x403c9704,len:0xcbc
load:0x403cc700,len:0x2da0
SHA-256 comparison failed:
Calculated: f6480e415161efbbcec0fe27d1780e22870b6d8f0027b8455711d0f74c133f59
Expected: ffffffffffffffffffffffffffffffffffffffffffffffffffffffffffffffff
Attempting to boot anyway...
entry 0x403c9914
[0;32mI (49) boot: ESP-IDF v5.2.1-dirty 2nd stage bootloader[0m
[0;32mI (50) boot: compile time Mar 22 2025 23:26:23[0m
[0;32mI (50) boot: Multicore bootloader[0m
[0;32mI (53) boot: chip revision: v0.2[0m
[0;32mI (57) boot.esp32s3: Boot SPI Speed : 80MHz[0m
[0;32mI (62) boot.esp32s3: SPI Mode       : DIO[0m
[0;32mI (67) boot.esp32s3: SPI Flash Size : 16MB[0m
[0;32mI (71) boot: Enabling RNG early entropy source...[0m
[0;32mI (77) boot: Partition Table:[0m
[0;32mI (80) boot: ## Label            Usage          Type ST Offset   Length[0m
[0;32mI (88) boot:  0 nvs              WiFi data        01 02 00009000 00006000[0m
[0;32mI (95) boot:  1 phy_init         RF data          01 01 0000f000 00001000[0m
[0;32mI (103) boot:  2 otadata          OTA data         01 00 00010000 00002000[0m
[0;32mI (110) boot:  3 factory          factory app      00 00 00020000 00200000[0m
[0;32mI (118) boot:  4 ota_0            OTA app          00 10 00220000 00200000[0m
[0;32mI (125) boot:  5 ota_1            OTA app          00 11 00420000 00200000[0m
[0;32mI (133) boot:  6 spiffs           Unknown data     01 82 00620000 00080000[0m
[0;32mI (140) boot: End of partition table[0m
[0;32mI (145) boot: Defaulting to factory image[0m
[0;32mI (149) esp_image: segment 0: paddr=00020020 vaddr=3c0c0020 size=2dddch (187868) map[0m
[0;32mI (179) esp_image: segment 1: paddr=0004de04 vaddr=3fc99d00 size=02214h (  8724) load[0m
[0;32mI (180) esp_image: segment 2: paddr=00050020 vaddr=42000020 size=b0998h (723352) map[0m
[0;32mI (265) esp_image: segment 3: paddr=001009c0 vaddr=3fc9bf14 size=026e4h (  9956) load[0m
[0;32mI (267) esp_image: segment 4: paddr=001030ac vaddr=40374000 size=15c00h ( 89088) load[0m
[0;32mI (294) boot: Loaded app from partition at offset 0x20000[0m
[0;32mI (294) boot: Disabling RNG early entropy source...[0m
[0;32mI (305) cpu_start: Multicore app[0m
[0;32mI (315) cpu_start: Pro cpu start user code[0m
[0;32mI (315) cpu_start: cpu freq: 240000000 Hz[0m
[0;32mI (316) cpu_start: Application information:[0m
[0;32mI (318) cpu_start: Project name:     main[0m
[0;32mI (323) cpu_start: App version:      0.0.1[0m
[0;32mI (328) cpu_start: Compile time:     Mar 23 2025 09:34:29[0m
[0;32mI (334) cpu_start: ELF file SHA256:  4bd69406c...[0m
[0;32mI (339) cpu_start: ESP-IDF:          v5.2.1-dirty[0m
[0;32mI (345) cpu_start: Min chip rev:     v0.0[0m
[0;32mI (349) cpu_start: Max chip rev:     v0.99 [0m
[0;32mI (354) cpu_start: Chip rev:         v0.2[0m
[0;32mI (359) heap_init: Initializing. RAM available for dynamic allocation:[0m
[0;32mI (366) heap_init: At 3FCA2928 len 00046DE8 (283 KiB): RAM[0m
[0;32mI (372) heap_init: At 3FCE9710 len 00005724 (21 KiB): RAM[0m
[0;32mI (378) heap_init: At 3FCF0000 len 00008000 (32 KiB): DRAM[0m
[0;32mI (385) heap_init: At 600FE010 len 00001FD8 (7 KiB): RTCRAM[0m
[0;32mI (392) spi_flash: detected chip: boya[0m
[0;32mI (395) spi_flash: flash io: dio[0m
[0;32mI (400) sleep: Configure to isolate all GPIO pins in sleep state[0m
[0;32mI (406) sleep: Enable automatic switching of GPIO sleep configuration[0m
[0;32mI (413) main_task: Started on CPU0[0m
[0;32mI (423) main_task: Calling app_main()[0m
[0;32mI (423) SYS: REBOOT[0m
Build at Mar 23 2025 09:35:40
[0;32mI (523) NVS: Initialze NVS[0m
 - WiFi SSID: SianAP
 - WiFi Password: sian79917
 - MQTT URL: mqtts://192.168.1.108
 - MQTT Username: ghost29083
 - MQTT Password: 123456789
 - Measurement publish period (seconds): 60
 - UTC: CST-8
 - DeviceSerial: 123
 - OTA_URL: 
[0;32mI (593) SPIFFS: SPIFFS Mounted.[0m
[0;32mI (593) SYS: Initialize LED[0m
[0;32mI (593) NRF24: CONFIG_MISO_GPIO=12[0m
[0;32mI (593) NRF24: CONFIG_MOSI_GPIO=11[0m
[0;32mI (593) NRF24: CONFIG_SCLK_GPIO=10[0m
[0;32mI (593) NRF24: CONFIG_CE_GPIO=8[0m
[0;32mI (603) NRF24: CONFIG_CSN_GPIO=9[0m
[0;32mI (603) gpio: GPIO[8]| InputEn: 0| OutputEn: 0| OpenDrain: 0| Pullup: 1| Pulldown: 0| Intr:0 [0m
[0;32mI (613) gpio: GPIO[9]| InputEn: 0| OutputEn: 0| OpenDrain: 0| Pullup: 1| Pulldown: 0| Intr:0 [0m
[0;32mI (623) NRF24: spi_bus_initialize=0[0m
[0;32mI (633) NRF24: spi_bus_add_device=0[0m
[0;32mI (633) SENDER: Start[0m
[0;33mW (633) SENDER: Set RF Data Ratio to 250KBps[0m
[0;33mW (643) SENDER: CONFIG_RETRANSMIT_DELAY=0[0m
================ SPI Configuration ================
CSN Pin  	 = GPIO9
CE Pin		 = GPIO8
Clock Speed	 = 4000000
================ NRF Configuration ================
STATUS		 = 0x0e RX_DR=0 TX_DS=0 MAX_RT=0 RX_P_NO=7 TX_FULL=0
RX_ADDR_P0-1	 = 0x464748494a 0x464748494a
RX_ADDR_P2-5	 = 0xc3 0xc4 0xc5 0xc6
TX_ADDR		 = 0x464748494a
RX_PW_P0-6	 = 0x20 0x20 0x00 0x00 0x00 0x00
EN_AA		 = 0x3f
EN_RXADDR	 = 0x03
RF_CH		 = 0x5a
RF_SETUP	 = 0x27
CONFIG		 = 0x2b
DYNPD/FEATURE	 = 0x00 0x00
Data Rate	 = 250Kbps
CRC Length	 = 8 bits
PA Power	 = PA_MAX
Retransmit	 = 250 us
[0;32mI (693) RECEVIER: Start[0m
[0;32mI (693) SENDER: Wait for sending.....[0m
[0;33mW (703) RECEVIER: Set RF Data Ratio to 250KBps[0m
[0;33mW (703) SENDER: Send fail:[0m
[0;33mW (713) RECEVIER: CONFIG_RETRANSMIT_DELAY=0[0m
================ SPI Configuration ================
CSN Pin  	 = GPIO9
CE Pin		 = GPIO8
Clock Speed	 = 4000000
================ NRF Configuration ================
STATUS		 = 0x0e RX_DR=0 TX_DS=0 MAX_RT=0 RX_P_NO=7 TX_FULL=0
RX_ADDR_P0-1	 = 0x464748494a 0x464748494a
RX_ADDR_P2-5	 = 0xc3 0xc4 0xc5 0xc6
TX_ADDR		 = 0x464748494a
RX_PW_P0-6	 = 0x20 0x20 0x00 0x00 0x00 0x00
EN_AA		 = 0x3f
EN_RXADDR	 = 0x03
RF_CH		 = 0x5a
RF_SETUP	 = 0x27
CONFIG		 = 0x2b
DYNPD/FEATURE	 = 0x00 0x00
Data Rate	 = 250Kbps
CRC Length	 = 8 bits
PA Power	 = PA_MAX
Retransmit	 = 250 us
[0;32mI (773) RECEVIER: Listening...[0m
Handling WIFI connections.
[0;32mI (773) pp: pp rom version: e7ae62f[0m
[0;32mI (783) net80211: net80211 rom version: e7ae62f[0m
I (793) wifi:wifi driver task: 3fcafafc, prio:23, stack:6656, core=0
I (803) wifi:wifi firmware version: a9f5b59
I (803) wifi:wifi certification version: v7.0
I (803) wifi:config NVS flash: enabled
I (803) wifi:config nano formating: disabled
I (813) wifi:Init data frame dynamic rx buffer num: 32
I (813) wifi:Init static rx mgmt buffer num: 5
I (813) wifi:Init management short buffer num: 32
I (823) wifi:Init static tx buffer num: 16
I (823) wifi:Init static tx FG buffer num: 2
I (833) wifi:Init static rx buffer size: 1600
I (833) wifi:Init static rx buffer num: 10
I (833) wifi:Init dynamic rx buffer num: 32
[0;32mI (843) wifi_init: rx ba win: 6[0m
[0;32mI (843) wifi_init: tcpip mbox: 32[0m
[0;32mI (853) wifi_init: udp mbox: 6[0m
[0;32mI (853) wifi_init: tcp mbox: 6[0m
[0;32mI (853) wifi_init: tcp tx win: 5760[0m
[0;32mI (863) wifi_init: tcp rx win: 5760[0m
[0;32mI (863) wifi_init: tcp mss: 1440[0m
[0;32mI (873) wifi_init: WiFi IRAM OP enabled[0m
[0;32mI (873) wifi_init: WiFi RX IRAM OP enabled[0m
[0;32mI (883) phy_init: phy_version 640,cd64a1a,Jan 24 2024,17:28:12[0m
I (923) wifi:mode : sta (f0:9e:9e:11:53:38) + softAP (f0:9e:9e:11:53:39)
I (923) wifi:enable tsf
I (923) wifi:Total power save buffer number: 8
I (923) wifi:Init max length of beacon: 752/752
I (923) wifi:Init max length of beacon: 752/752
[0;32mI (933) WIFI: Wi-Fi enableï¼Œ Starting connect...[0m
[0;32mI (933) esp_netif_lwip: DHCP server started on interface WIFI_AP_DEF with IP: 192.168.4.1[0m
[0;32mI (1713) SENDER: Wait for sending.....[0m
[0;33mW (1723) NRF24: Maximum number of TX retries interrupt[0m
[0;33mW (1723) SENDER: Send fail:[0m
I (2513) wifi:ap channel adjust o:1,1 n:11,2
I (2513) wifi:new:<11,0>, old:<1,1>, ap:<11,2>, sta:<11,0>, prof:1
I (2513) wifi:state: init -> auth (b0)

assert failed: spi_device_transmit spi_master.c:1023 (ret_trans == trans_desc)


Backtrace: 0x40375ade:0x3fca9a50 0x4037cced:0x3fca9a70 0x403858f9:0x3fca9a90 0x42015e5d:0x3fca9bb0 0x4200c37d:0x3fca9be0 0x4200c395:0x3fca9c30 0x4200c3db:0x3fca9c60 0x4200c558:0x3fca9c80 0x4200c5bf:0x3fca9ca0 0x4200bfea:0x3fca9cc0 0x4037d7f9:0x3fca9d00




ELF file SHA256: 4bd69406c

Rebooting...
ï¿½ï¿½ï¿½ESP-ROM:esp32s3-20210327
Build:Mar 27 2021
rst:0xc (RTC_SW_CPU_RST),boot:0x8 (SPI_FAST_FLASH_BOOT)
Saved PC:0x4204b4c4
SPIWP:0xee
mode:DIO, clock div:1
load:0x3fce3810,len:0x178c
load:0x403c9700,len:0x4
load:0x403c9704,len:0xcbc
load:0x403cc700,len:0x2da0
SHA-256 comparison failed:
Calculated: f6480e415161efbbcec0fe27d1780e22870b6d8f0027b8455711d0f74c133f59
Expected: ffffffffffffffffffffffffffffffffffffffffffffffffffffffffffffffff
Attempting to boot anyway...
entry 0x403c9914
[0;32mI (49) boot: ESP-IDF v5.2.1-dirty 2nd stage bootloader[0m
[0;32mI (50) boot: compile time Mar 22 2025 23:26:23[0m
[0;32mI (50) boot: Multicore bootloader[0m
[0;32mI (53) boot: chip revision: v0.2[0m
[0;32mI (57) boot.esp32s3: Boot SPI Speed : 80MHz[0m
[0;32mI (62) boot.esp32s3: SPI Mode       : DIO[0m
[0;32mI (67) boot.esp32s3: SPI Flash Size : 16MB[0m
[0;32mI (71) boot: Enabling RNG early entropy source...[0m
[0;32mI (77) boot: Partition Table:[0m
[0;32mI (80) boot: ## Label            Usage          Type ST Offset   Length[0m
[0;32mI (88) boot:  0 nvs              WiFi data        01 02 00009000 00006000[0m
[0;32mI (95) boot:  1 phy_init         RF data          01 01 0000f000 00001000[0m
[0;32mI (103) boot:  2 otadata          OTA data         01 00 00010000 00002000[0m
[0;32mI (110) boot:  3 factory          factory app      00 00 00020000 00200000[0m
[0;32mI (118) boot:  4 ota_0            OTA app          00 10 00220000 00200000[0m
[0;32mI (125) boot:  5 ota_1            OTA app          00 11 00420000 00200000[0m
[0;32mI (133) boot:  6 spiffs           Unknown data     01 82 00620000 00080000[0m
[0;32mI (140) boot: End of partition table[0m
[0;32mI (145) boot: Defaulting to factory image[0m
[0;32mI (149) esp_image: segment 0: paddr=00020020 vaddr=3c0c0020 size=2dddch (187868) map[0m
[0;32mI (179) esp_image: segment 1: paddr=0004de04 vaddr=3fc99d00 size=02214h (  8724) load[0m
[0;32mI (180) esp_image: segment 2: paddr=00050020 vaddr=42000020 size=b0998h (723352) map[0m
[0;32mI (265) esp_image: segment 3: paddr=001009c0 vaddr=3fc9bf14 size=026e4h (  9956) load[0m
[0;32mI (267) esp_image: segment 4: paddr=001030ac vaddr=40374000 size=15c00h ( 89088) load[0m
[0;32mI (294) boot: Loaded app from partition at offset 0x20000[0m
[0;32mI (294) boot: Disabling RNG early entropy source...[0m
[0;32mI (305) cpu_start: Multicore app[0m
[0;32mI (315) cpu_start: Pro cpu start user code[0m
[0;32mI (315) cpu_start: cpu freq: 240000000 Hz[0m
[0;32mI (316) cpu_start: Application information:[0m
[0;32mI (318) cpu_start: Project name:     main[0m
[0;32mI (323) cpu_start: App version:      0.0.1[0m
[0;32mI (328) cpu_start: Compile time:     Mar 23 2025 09:34:29[0m
[0;32mI (334) cpu_start: ELF file SHA256:  4bd69406c...[0m
[0;32mI (339) cpu_start: ESP-IDF:          v5.2.1-dirty[0m
[0;32mI (345) cpu_start: Min chip rev:     v0.0[0m
[0;32mI (349) cpu_start: Max chip rev:     v0.99 [0m
[0;32mI (354) cpu_start: Chip rev:         v0.2[0m
[0;32mI (359) heap_init: Initializing. RAM available for dynamic allocation:[0m
[0;32mI (366) heap_init: At 3FCA2928 len 00046DE8 (283 KiB): RAM[0m
[0;32mI (372) heap_init: At 3FCE9710 len 00005724 (21 KiB): RAM[0m
[0;32mI (378) heap_init: At 3FCF0000 len 00008000 (32 KiB): DRAM[0m
[0;32mI (385) heap_init: At 600FE010 len 00001FD8 (7 KiB): RTCRAM[0m
[0;32mI (392) spi_flash: detected chip: boya[0m
[0;32mI (395) spi_flash: flash io: dio[0m
[0;32mI (400) sleep: Configure to isolate all GPIO pins in sleep state[0m
[0;32mI (406) sleep: Enable automatic switching of GPIO sleep configuration[0m
[0;32mI (413) main_task: Started on CPU0[0m
[0;32mI (423) main_task: Calling app_main()[0m
[0;32mI (423) SYS: REBOOT[0m
Build at Mar 23 2025 09:35:40
[0;32mI (923) NVS: Initialze NVS[0m
 - WiFi SSID: SianAP
 - WiFi Password: sian79917
 - MQTT URL: mqtts://192.168.1.108
 - MQTT Username: ghost29083
 - MQTT Password: 123456789
 - Measurement publish period (seconds): 60
 - UTC: CST-8
 - DeviceSerial: 123
 - OTA_URL: 
[0;32mI (993) SPIFFS: SPIFFS Mounted.[0m
[0;32mI (993) SYS: Initialize LED[0m
[0;32mI (993) NRF24: CONFIG_MISO_GPIO=12[0m
[0;32mI (993) NRF24: CONFIG_MOSI_GPIO=11[0m
[0;32mI (993) NRF24: CONFIG_SCLK_GPIO=10[0m
[0;32mI (993) NRF24: CONFIG_CE_GPIO=8[0m
[0;32mI (1003) NRF24: CONFIG_CSN_GPIO=9[0m
[0;32mI (1003) gpio: GPIO[8]| InputEn: 0| OutputEn: 0| OpenDrain: 0| Pullup: 1| Pulldown: 0| Intr:0 [0m
[0;32mI (1013) gpio: GPIO[9]| InputEn: 0| OutputEn: 0| OpenDrain: 0| Pullup: 1| Pulldown: 0| Intr:0 [0m
[0;32mI (1023) NRF24: spi_bus_initialize=0[0m
[0;32mI (1033) NRF24: spi_bus_add_device=0[0m
[0;32mI (1033) SENDER: Start[0m
[0;33mW (1033) SENDER: Set RF Data Ratio to 250KBps[0m
[0;33mW (1043) SENDER: CONFIG_RETRANSMIT_DELAY=0[0m
================ SPI Configuration ================
CSN Pin  	 = GPIO9
CE Pin		 = GPIO8
Clock Speed	 = 4000000
================ NRF Configuration ================
STATUS		 = 0x0e RX_DR=0 TX_DS=0 MAX_RT=0 RX_P_NO=7 TX_FULL=0
RX_ADDR_P0-1	 = 0x464748494a 0x464748494a
RX_ADDR_P2-5	 = 0xc3 0xc4 0xc5 0xc6
TX_ADDR		 = 0x464748494a
RX_PW_P0-6	 = 0x20 0x20 0x00 0x00 0x00 0x00
EN_AA		 = 0x3f
EN_RXADDR	 = 0x03
RF_CH		 = 0x5a
RF_SETUP	 = 0x27
CONFIG		 = 0x2b
DYNPD/FEATURE	 = 0x00 0x00
Data Rate	 = 250Kbps
CRC Length	 = 8 bits
PA Power	 = PA_MAX
Retransmit	 = 250 us
[0;32mI (1093) RECEVIER: Start[0m
[0;32mI (1093) SENDER: Wait for sending.....[0m
[0;33mW (1103) RECEVIER: Set RF Data Ratio to 250KBps[0m
[0;33mW (1103) SENDER: Send fail:[0m
[0;33mW (1113) RECEVIER: CONFIG_RETRANSMIT_DELAY=0[0m
================ SPI Configuration ================
CSN Pin  	 = GPIO9
CE Pin		 = GPIO8
Clock Speed	 = 4000000
================ NRF Configuration ================
STATUS		 = 0x0e RX_DR=0 TX_DS=0 MAX_RT=0 RX_P_NO=7 TX_FULL=0
RX_ADDR_P0-1	 = 0x464748494a 0x464748494a
RX_ADDR_P2-5	 = 0xc3 0xc4 0xc5 0xc6
TX_ADDR		 = 0x464748494a
RX_PW_P0-6	 = 0x20 0x20 0x00 0x00 0x00 0x00
EN_AA		 = 0x3f
EN_RXADDR	 = 0x03
RF_CH		 = 0x5a
RF_SETUP	 = 0x27
CONFIG		 = 0x2b
DYNPD/FEATURE	 = 0x00 0x00
Data Rate	 = 250Kbps
CRC Length	 = 8 bits
PA Power	 = PA_MAX
Retransmit	 = 250 us
[0;32mI (1173) RECEVIER: Listening...[0m
Handling WIFI connections.
[0;32mI (1173) pp: pp rom version: e7ae62f[0m
[0;32mI (1183) net80211: net80211 rom version: e7ae62f[0m
I (1193) wifi:wifi driver task: 3fcafafc, prio:23, stack:6656, core=0
I (1203) wifi:wifi firmware version: a9f5b59
I (1203) wifi:wifi certification version: v7.0
I (1203) wifi:config NVS flash: enabled
I (1203) wifi:config nano formating: disabled
I (1213) wifi:Init data frame dynamic rx buffer num: 32
I (1213) wifi:Init static rx mgmt buffer num: 5
I (1223) wifi:Init management short buffer num: 32
I (1223) wifi:Init static tx buffer num: 16
I (1223) wifi:Init static tx FG buffer num: 2
I (1233) wifi:Init static rx buffer size: 1600
I (1233) wifi:Init static rx buffer num: 10
I (1243) wifi:Init dynamic rx buffer num: 32
[0;32mI (1243) wifi_init: rx ba win: 6[0m
[0;32mI (1243) wifi_init: tcpip mbox: 32[0m
[0;32mI (1253) wifi_init: udp mbox: 6[0m
[0;32mI (1253) wifi_init: tcp mbox: 6[0m
[0;32mI (1263) wifi_init: tcp tx win: 5760[0m
[0;32mI (1263) wifi_init: tcp rx win: 5760[0m
[0;32mI (1273) wifi_init: tcp mss: 1440[0m
[0;32mI (1273) wifi_init: WiFi IRAM OP enabled[0m
[0;32mI (1273) wifi_init: WiFi RX IRAM OP enabled[0m
[0;32mI (1293) phy_init: phy_version 640,cd64a1a,Jan 24 2024,17:28:12[0m
I (1323) wifi:mode : sta (f0:9e:9e:11:53:38) + softAP (f0:9e:9e:11:53:39)
I (1323) wifi:enable tsf
I (1323) wifi:Total power save buffer number: 8
I (1333) wifi:Init max length of beacon: 752/752
I (1333) wifi:Init max length of beacon: 752/752
[0;32mI (1333) WIFI: Wi-Fi enableï¼Œ Starting connect...[0m
[0;32mI (1343) esp_netif_lwip: DHCP server started on interface WIFI_AP_DEF with IP: 192.168.4.1[0m
[0;32mI (2113) SENDER: Wait for sending.....[0m
[0;33mW (2123) NRF24: Maximum number of TX retries interrupt[0m
[0;33mW (2123) SENDER: Send fail:[0m
I (2873) wifi:ap channel adjust o:1,1 n:11,2
I (2873) wifi:new:<11,0>, old:<1,1>, ap:<11,2>, sta:<11,0>, prof:1
I (2883) wifi:state: init -> auth (b0)

assert failed: spi_device_transmit spi_master.c:1023 (ret_trans == trans_desc)


Backtrace: 0x40375ade:0x3fca9a50 0x4037cced:0x3fca9a70 0x403858f9:0x3fca9a90 0x42015e5d:0x3fca9bb0 0x4200c37d:0x3fca9be0 0x4200c395:0x3fca9c30 0x4200c3db:0x3fca9c60 0x4200c558:0x3fca9c80 0x4200c5bf:0x3fca9ca0 0x4200bfea:0x3fca9cc0 0x4037d7f9:0x3fca9d00




ELF file SHA256: 4bd69406c

Rebooting...
ï¿½ï¿½ï¿½ESP-ROM:esp32s3-20210327
Build:Mar 27 2021
rst:0xc (RTC_SW_CPU_RST),boot:0x8 (SPI_FAST_FLASH_BOOT)
Saved PC:0x420aa4b1
SPIWP:0xee
mode:DIO, clock div:1
load:0x3fce3810,len:0x178c
load:0x403c9700,len:0x4
load:0x403c9704,len:0xcbc
load:0x403cc700,len:0x2da0
SHA-256 comparison failed:
Calculated: f6480e415161efbbcec0fe27d1780e22870b6d8f0027b8455711d0f74c133f59
Expected: ffffffffffffffffffffffffffffffffffffffffffffffffffffffffffffffff
Attempting to boot anyway...
entry 0x403c9914
[0;32mI (49) boot: ESP-IDF v5.2.1-dirty 2nd stage bootloader[0m
[0;32mI (50) boot: compile time Mar 22 2025 23:26:23[0m
[0;32mI (50) boot: Multicore bootloader[0m
[0;32mI (53) boot: chip revision: v0.2[0m
[0;32mI (57) boot.esp32s3: Boot SPI Speed : 80MHz[0m
[0;32mI (62) boot.esp32s3: SPI Mode       : DIO[0m
[0;32mI (67) boot.esp32s3: SPI Flash Size : 16MB[0m
[0;32mI (71) boot: Enabling RNG early entropy source...[0m
[0;32mI (77) boot: Partition Table:[0m
[0;32mI (80) boot: ## Label            Usage          Type ST Offset   Length[0m
[0;32mI (88) boot:  0 nvs              WiFi data        01 02 00009000 00006000[0m
[0;32mI (95) boot:  1 phy_init         RF data          01 01 0000f000 00001000[0m
[0;32mI (103) boot:  2 otadata          OTA data         01 00 00010000 00002000[0m
[0;32mI (110) boot:  3 factory          factory app      00 00 00020000 00200000[0m
[0;32mI (118) boot:  4 ota_0            OTA app          00 10 00220000 00200000[0m
[0;32mI (125) boot:  5 ota_1            OTA app          00 11 00420000 00200000[0m
[0;32mI (133) boot:  6 spiffs           Unknown data     01 82 00620000 00080000[0m
[0;32mI (140) boot: End of partition table[0m
[0;32mI (145) boot: Defaulting to factory image[0m
[0;32mI (149) esp_image: segment 0: paddr=00020020 vaddr=3c0c0020 size=2dddch (187868) map[0m
[0;32mI (179) esp_image: segment 1: paddr=0004de04 vaddr=3fc99d00 size=02214h (  8724) load[0m
[0;32mI (180) esp_image: segment 2: paddr=00050020 vaddr=42000020 size=b0998h (723352) map[0m
[0;32mI (265) esp_image: segment 3: paddr=001009c0 vaddr=3fc9bf14 size=026e4h (  9956) load[0m
[0;32mI (267) esp_image: segment 4: paddr=001030ac vaddr=40374000 size=15c00h ( 89088) load[0m
[0;32mI (294) boot: Loaded app from partition at offset 0x20000[0m
[0;32mI (294) boot: Disabling RNG early entropy source...[0m
[0;32mI (305) cpu_start: Multicore app[0m
[0;32mI (315) cpu_start: Pro cpu start user code[0m
[0;32mI (315) cpu_start: cpu freq: 240000000 Hz[0m
[0;32mI (316) cpu_start: Application information:[0m
[0;32mI (318) cpu_start: Project name:     main[0m
[0;32mI (323) cpu_start: App version:      0.0.1[0m
[0;32mI (328) cpu_start: Compile time:     Mar 23 2025 09:34:29[0m
[0;32mI (334) cpu_start: ELF file SHA256:  4bd69406c...[0m
[0;32mI (339) cpu_start: ESP-IDF:          v5.2.1-dirty[0m
[0;32mI (345) cpu_start: Min chip rev:     v0.0[0m
[0;32mI (349) cpu_start: Max chip rev:     v0.99 [0m
[0;32mI (354) cpu_start: Chip rev:         v0.2[0m
[0;32mI (359) heap_init: Initializing. RAM available for dynamic allocation:[0m
[0;32mI (366) heap_init: At 3FCA2928 len 00046DE8 (283 KiB): RAM[0m
[0;32mI (372) heap_init: At 3FCE9710 len 00005724 (21 KiB): RAM[0m
[0;32mI (378) heap_init: At 3FCF0000 len 00008000 (32 KiB): DRAM[0m
[0;32mI (385) heap_init: At 600FE010 len 00001FD8 (7 KiB): RTCRAM[0m
[0;32mI (392) spi_flash: detected chip: boya[0m
[0;32mI (395) spi_flash: flash io: dio[0m
[0;32mI (400) sleep: Configure to isolate all GPIO pins in sleep state[0m
[0;32mI (406) sleep: Enable automatic switching of GPIO sleep configuration[0m
[0;32mI (413) main_task: Started on CPU0[0m
[0;32mI (423) main_task: Calling app_main()[0m
[0;32mI (423) SYS: REBOOT[0m
Build at Mar 23 2025 09:35:40
[0;32mI (1283) NVS: Initialze NVS[0m
 - WiFi SSID: SianAP
 - WiFi Password: sian79917
 - MQTT URL: mqtts://192.168.1.108
 - MQTT Username: ghost29083
 - MQTT Password: 123456789
 - Measurement publish period (seconds): 60
 - UTC: CST-8
 - DeviceSerial: 123
 - OTA_URL: 
[0;32mI (1353) SPIFFS: SPIFFS Mounted.[0m
[0;32mI (1353) SYS: Initialize LED[0m
[0;32mI (1353) NRF24: CONFIG_MISO_GPIO=12[0m
[0;32mI (1353) NRF24: CONFIG_MOSI_GPIO=11[0m
[0;32mI (1353) NRF24: CONFIG_SCLK_GPIO=10[0m
[0;32mI (1363) NRF24: CONFIG_CE_GPIO=8[0m
[0;32mI (1363) NRF24: CONFIG_CSN_GPIO=9[0m
[0;32mI (1363) gpio: GPIO[8]| InputEn: 0| OutputEn: 0| OpenDrain: 0| Pullup: 1| Pulldown: 0| Intr:0 [0m
[0;32mI (1373) gpio: GPIO[9]| InputEn: 0| OutputEn: 0| OpenDrain: 0| Pullup: 1| Pulldown: 0| Intr:0 [0m
[0;32mI (1383) NRF24: spi_bus_initialize=0[0m
[0;32mI (1393) NRF24: spi_bus_add_device=0[0m
[0;32mI (1393) SENDER: Start[0m
[0;33mW (1393) SENDER: Set RF Data Ratio to 250KBps[0m
[0;33mW (1403) SENDER: CONFIG_RETRANSMIT_DELAY=0[0m
================ SPI Configuration ================
CSN Pin  	 = GPIO9
CE Pin		 = GPIO8
Clock Speed	 = 4000000
================ NRF Configuration ================
STATUS		 = 0x0e RX_DR=0 TX_DS=0 MAX_RT=0 RX_P_NO=7 TX_FULL=0
RX_ADDR_P0-1	 = 0x464748494a 0x464748494a
RX_ADDR_P2-5	 = 0xc3 0xc4 0xc5 0xc6
TX_ADDR		 = 0x464748494a
RX_PW_P0-6	 = 0x20 0x20 0x00 0x00 0x00 0x00
EN_AA		 = 0x3f
EN_RXADDR	 = 0x03
RF_CH		 = 0x5a
RF_SETUP	 = 0x27
CONFIG		 = 0x2b
DYNPD/FEATURE	 = 0x00 0x00
Data Rate	 = 250Kbps
CRC Length	 = 8 bits
PA Power	 = PA_MAX
Retransmit	 = 250 us
[0;32mI (1453) RECEVIER: Start[0m
[0;32mI (1453) SENDER: Wait for sending.....[0m
[0;33mW (1463) RECEVIER: Set RF Data Ratio to 250KBps[0m
[0;33mW (1463) SENDER: Send fail:[0m
[0;33mW (1473) RECEVIER: CONFIG_RETRANSMIT_DELAY=0[0m
================ SPI Configuration ================
CSN Pin  	 = GPIO9
CE Pin		 = GPIO8
Clock Speed	 = 4000000
================ NRF Configuration ================
STATUS		 = 0x0e RX_DR=0 TX_DS=0 MAX_RT=0 RX_P_NO=7 TX_FULL=0
RX_ADDR_P0-1	 = 0x464748494a 0x464748494a
RX_ADDR_P2-5	 = 0xc3 0xc4 0xc5 0xc6
TX_ADDR		 = 0x464748494a
RX_PW_P0-6	 = 0x20 0x20 0x00 0x00 0x00 0x00
EN_AA		 = 0x3f
EN_RXADDR	 = 0x03
RF_CH		 = 0x5a
RF_SETUP	 = 0x27
CONFIG		 = 0x2b
DYNPD/FEATURE	 = 0x00 0x00
Data Rate	 = 250Kbps
CRC Length	 = 8 bits
PA Power	 = PA_MAX
Retransmit	 = 250 us
[0;32mI (1533) RECEVIER: Listening...[0m
Handling WIFI connections.
[0;32mI (1533) pp: pp rom version: e7ae62f[0m
[0;32mI (1543) net80211: net80211 rom version: e7ae62f[0m
I (1553) wifi:wifi driver task: 3fcafafc, prio:23, stack:6656, core=0
I (1563) wifi:wifi firmware version: a9f5b59
I (1563) wifi:wifi certification version: v7.0
I (1563) wifi:config NVS flash: enabled
I (1563) wifi:config nano formating: disabled
I (1573) wifi:Init data frame dynamic rx buffer num: 32
I (1573) wifi:Init static rx mgmt buffer num: 5
I (1583) wifi:Init management short buffer num: 32
I (1583) wifi:Init static tx buffer num: 16
I (1593) wifi:Init static tx FG buffer num: 2
I (1593) wifi:Init static rx buffer size: 1600
I (1593) wifi:Init static rx buffer num: 10
I (1603) wifi:Init dynamic rx buffer num: 32
[0;32mI (1603) wifi_init: rx ba win: 6[0m
[0;32mI (1613) wifi_init: tcpip mbox: 32[0m
[0;32mI (1613) wifi_init: udp mbox: 6[0m
[0;32mI (1613) wifi_init: tcp mbox: 6[0m
[0;32mI (1623) wifi_init: tcp tx win: 5760[0m
[0;32mI (1623) wifi_init: tcp rx win: 5760[0m
[0;32mI (1633) wifi_init: tcp mss: 1440[0m
[0;32mI (1633) wifi_init: WiFi IRAM OP enabled[0m
[0;32mI (1633) wifi_init: WiFi RX IRAM OP enabled[0m
[0;32mI (1653) phy_init: phy_version 640,cd64a1a,Jan 24 2024,17:28:12[0m
I (1683) wifi:mode : sta (f0:9e:9e:11:53:38) + softAP (f0:9e:9e:11:53:39)
I (1683) wifi:enable tsf
I (1683) wifi:Total power save buffer number: 8
I (1693) wifi:Init max length of beacon: 752/752
I (1693) wifi:Init max length of beacon: 752/752
[0;32mI (1693) WIFI: Wi-Fi enableï¼Œ Starting connect...[0m
[0;32mI (1703) esp_netif_lwip: DHCP server started on interface WIFI_AP_DEF with IP: 192.168.4.1[0m
[0;32mI (2473) SENDER: Wait for sending.....[0m

assert failed: spi_device_transmit spi_master.c:1023 (ret_trans == trans_desc)


Backtrace: 0x40375ade:0x3fca9a40 0x4037cced:0x3fca9a60 0x403858f9:0x3fca9a80 0x42015e5d:0x3fca9ba0 0x4200c37d:0x3fca9bd0 0x4200c395:0x3fca9c20 0x4200c42f:0x3fca9c50 0x4200c502:0x3fca9c70 0x4200c669:0x3fca9ca0 0x4200c01e:0x3fca9cc0 0x4037d7f9:0x3fca9d00




ELF file SHA256: 4bd69406c

Rebooting...
ï¿½ï¿½ï¿½ESP-ROM:esp32s3-20210327
Build:Mar 27 2021
rst:0xc (RTC_SW_CPU_RST),boot:0x8 (SPI_FAST_FLASH_BOOT)
Saved PC:0x40375a54
SPIWP:0xee
mode:DIO, clock div:1
load:0x3fce3810,len:0x178c
load:0x403c9700,len:0x4
load:0x403c9704,len:0xcbc
load:0x403cc700,len:0x2da0
SHA-256 comparison failed:
Calculated: f6480e415161efbbcec0fe27d1780e22870b6d8f0027b8455711d0f74c133f59
Expected: ffffffffffffffffffffffffffffffffffffffffffffffffffffffffffffffff
Attempting to boot anyway...
entry 0x403c9914
[0;32mI (49) boot: ESP-IDF v5.2.1-dirty 2nd stage bootloader[0m
[0;32mI (50) boot: compile time Mar 22 2025 23:26:23[0m
[0;32mI (50) boot: Multicore bootloader[0m
[0;32mI (53) boot: chip revision: v0.2[0m
[0;32mI (57) boot.esp32s3: Boot SPI Speed : 80MHz[0m
[0;32mI (62) boot.esp32s3: SPI Mode       : DIO[0m
[0;32mI (67) boot.esp32s3: SPI Flash Size : 16MB[0m
[0;32mI (71) boot: Enabling RNG early entropy source...[0m
[0;32mI (77) boot: Partition Table:[0m
[0;32mI (80) boot: ## Label            Usage          Type ST Offset   Length[0m
[0;32mI (88) boot:  0 nvs              WiFi data        01 02 00009000 00006000[0m
[0;32mI (95) boot:  1 phy_init         RF data          01 01 0000f000 00001000[0m
[0;32mI (103) boot:  2 otadata          OTA data         01 00 00010000 00002000[0m
[0;32mI (110) boot:  3 factory          factory app      00 00 00020000 00200000[0m
[0;32mI (118) boot:  4 ota_0            OTA app          00 10 00220000 00200000[0m
[0;32mI (125) boot:  5 ota_1            OTA app          00 11 00420000 00200000[0m
[0;32mI (133) boot:  6 spiffs           Unknown data     01 82 00620000 00080000[0m
[0;32mI (140) boot: End of partition table[0m
[0;32mI (145) boot: Defaulting to factory image[0m
[0;32mI (149) esp_image: segment 0: paddr=00020020 vaddr=3c0c0020 size=2dddch (187868) map[0m
[0;32mI (179) esp_image: segment 1: paddr=0004de04 vaddr=3fc99d00 size=02214h (  8724) load[0m
[0;32mI (180) esp_image: segment 2: paddr=00050020 vaddr=42000020 size=b0998h (723352) map[0m
[0;32mI (265) esp_image: segment 3: paddr=001009c0 vaddr=3fc9bf14 size=026e4h (  9956) load[0m
[0;32mI (267) esp_image: segment 4: paddr=001030ac vaddr=40374000 size=15c00h ( 89088) load[0m
[0;32mI (293) boot: Loaded app from partition at offset 0x20000[0m
[0;32mI (294) boot: Disabling RNG early entropy source...[0m
[0;32mI (305) cpu_start: Multicore app[0m
[0;32mI (315) cpu_start: Pro cpu start user code[0m
[0;32mI (315) cpu_start: cpu freq: 240000000 Hz[0m
[0;32mI (315) cpu_start: Application information:[0m
[0;32mI (318) cpu_start: Project name:     main[0m
[0;32mI (323) cpu_start: App version:      0.0.1[0m
[0;32mI (328) cpu_start: Compile time:     Mar 23 2025 09:34:29[0m
[0;32mI (334) cpu_start: ELF file SHA256:  4bd69406c...[0m
[0;32mI (339) cpu_start: ESP-IDF:          v5.2.1-dirty[0m
[0;32mI (345) cpu_start: Min chip rev:     v0.0[0m
[0;32mI (349) cpu_start: Max chip rev:     v0.99 [0m
[0;32mI (354) cpu_start: Chip rev:         v0.2[0m
[0;32mI (359) heap_init: Initializing. RAM available for dynamic allocation:[0m
[0;32mI (366) heap_init: At 3FCA2928 len 00046DE8 (283 KiB): RAM[0m
[0;32mI (372) heap_init: At 3FCE9710 len 00005724 (21 KiB): RAM[0m
[0;32mI (378) heap_init: At 3FCF0000 len 00008000 (32 KiB): DRAM[0m
[0;32mI (385) heap_init: At 600FE010 len 00001FD8 (7 KiB): RTCRAM[0m
[0;32mI (392) spi_flash: detected chip: boya[0m
[0;32mI (395) spi_flash: flash io: dio[0m
[0;32mI (400) sleep: Configure to isolate all GPIO pins in sleep state[0m
[0;32mI (406) sleep: Enable automatic switching of GPIO sleep configuration[0m
[0;32mI (413) main_task: Started on CPU0[0m
[0;32mI (423) main_task: Calling app_main()[0m
[0;32mI (423) SYS: REBOOT[0m
Build at Mar 23 2025 09:35:40
[0;32mI (813) NVS: Initialze NVS[0m
 - WiFi SSID: SianAP
 - WiFi Password: sian79917
 - MQTT URL: mqtts://192.168.1.108
 - MQTT Username: ghost29083
 - MQTT Password: 123456789
 - Measurement publish period (seconds): 60
 - UTC: CST-8
 - DeviceSerial: 123
 - OTA_URL: 
[0;32mI (883) SPIFFS: SPIFFS Mounted.[0m
[0;32mI (883) SYS: Initialize LED[0m
[0;32mI (883) NRF24: CONFIG_MISO_GPIO=12[0m
[0;32mI (883) NRF24: CONFIG_MOSI_GPIO=11[0m
[0;32mI (883) NRF24: CONFIG_SCLK_GPIO=10[0m
[0;32mI (883) NRF24: CONFIG_CE_GPIO=8[0m
[0;32mI (893) NRF24: CONFIG_CSN_GPIO=9[0m
[0;32mI (893) gpio: GPIO[8]| InputEn: 0| OutputEn: 0| OpenDrain: 0| Pullup: 1| Pulldown: 0| Intr:0 [0m
[0;32mI (903) gpio: GPIO[9]| InputEn: 0| OutputEn: 0| OpenDrain: 0| Pullup: 1| Pulldown: 0| Intr:0 [0m
[0;32mI (913) NRF24: spi_bus_initialize=0[0m
[0;32mI (923) NRF24: spi_bus_add_device=0[0m
[0;32mI (923) SENDER: Start[0m
[0;33mW (923) SENDER: Set RF Data Ratio to 250KBps[0m
[0;33mW (933) SENDER: CONFIG_RETRANSMIT_DELAY=0[0m
================ SPI Configuration ================
CSN Pin  	 = GPIO9
CE Pin		 = GPIO8
Clock Speed	 = 4000000
================ NRF Configuration ================
STATUS		 = 0x0e RX_DR=0 TX_DS=0 MAX_RT=0 RX_P_NO=7 TX_FULL=0
RX_ADDR_P0-1	 = 0x464748494a 0x464748494a
RX_ADDR_P2-5	 = 0xc3 0xc4 0xc5 0xc6
TX_ADDR		 = 0x464748494a
RX_PW_P0-6	 = 0x20 0x20 0x00 0x00 0x00 0x00
EN_AA		 = 0x3f
EN_RXADDR	 = 0x03
RF_CH		 = 0x5a
RF_SETUP	 = 0x27
CONFIG		 = 0x2b
DYNPD/FEATURE	 = 0x00 0x00
Data Rate	 = 250Kbps
CRC Length	 = 8 bits
PA Power	 = PA_MAX
Retransmit	 = 250 us
[0;32mI (983) RECEVIER: Start[0m
[0;32mI (983) SENDER: Wait for sending.....[0m
[0;33mW (993) RECEVIER: Set RF Data Ratio to 250KBps[0m
[0;33mW (993) SENDER: Send fail:[0m
[0;33mW (1003) RECEVIER: CONFIG_RETRANSMIT_DELAY=0[0m
================ SPI Configuration ================
CSN Pin  	 = GPIO9
CE Pin		 = GPIO8
Clock Speed	 = 4000000
================ NRF Configuration ================
STATUS		 = 0x0e RX_DR=0 TX_DS=0 MAX_RT=0 RX_P_NO=7 TX_FULL=0
RX_ADDR_P0-1	 = 0x464748494a 0x464748494a
RX_ADDR_P2-5	 = 0xc3 0xc4 0xc5 0xc6
TX_ADDR		 = 0x464748494a
RX_PW_P0-6	 = 0x20 0x20 0x00 0x00 0x00 0x00
EN_AA		 = 0x3f
EN_RXADDR	 = 0x03
RF_CH		 = 0x5a
RF_SETUP	 = 0x27
CONFIG		 = 0x2b
DYNPD/FEATURE	 = 0x00 0x00
Data Rate	 = 250Kbps
CRC Length	 = 8 bits
PA Power	 = PA_MAX
Retransmit	 = 250 us
[0;32mI (1063) RECEVIER: Listening...[0m
Handling WIFI connections.
[0;32mI (1063) pp: pp rom version: e7ae62f[0m
[0;32mI (1073) net80211: net80211 rom version: e7ae62f[0m
I (1083) wifi:wifi driver task: 3fcafafc, prio:23, stack:6656, core=0
I (1093) wifi:wifi firmware version: a9f5b59
I (1093) wifi:wifi certification version: v7.0
I (1093) wifi:config NVS flash: enabled
I (1093) wifi:config nano formating: disabled
I (1103) wifi:Init data frame dynamic rx buffer num: 32
I (1103) wifi:Init static rx mgmt buffer num: 5
I (1113) wifi:Init management short buffer num: 32
I (1113) wifi:Init static tx buffer num: 16
I (1113) wifi:Init static tx FG buffer num: 2
I (1123) wifi:Init static rx buffer size: 1600
I (1123) wifi:Init static rx buffer num: 10
I (1133) wifi:Init dynamic rx buffer num: 32
[0;32mI (1133) wifi_init: rx ba win: 6[0m
[0;32mI (1133) wifi_init: tcpip mbox: 32[0m
[0;32mI (1143) wifi_init: udp mbox: 6[0m
[0;32mI (1143) wifi_init: tcp mbox: 6[0m
[0;32mI (1153) wifi_init: tcp tx win: 5760[0m
[0;32mI (1153) wifi_init: tcp rx win: 5760[0m
[0;32mI (1153) wifi_init: tcp mss: 1440[0m
[0;32mI (1163) wifi_init: WiFi IRAM OP enabled[0m
[0;32mI (1163) wifi_init: WiFi RX IRAM OP enabled[0m
[0;32mI (1173) phy_init: phy_version 640,cd64a1a,Jan 24 2024,17:28:12[0m
I (1213) wifi:mode : sta (f0:9e:9e:11:53:38) + softAP (f0:9e:9e:11:53:39)
I (1223) wifi:enable tsf
I (1223) wifi:Total power save buffer number: 8
I (1223) wifi:Init max length of beacon: 752/752
I (1223) wifi:Init max length of beacon: 752/752
[0;32mI (1233) WIFI: Wi-Fi enableï¼Œ Starting connect...[0m
[0;32mI (1233) esp_netif_lwip: DHCP server started on interface WIFI_AP_DEF with IP: 192.168.4.1[0m
[0;32mI (2003) SENDER: Wait for sending.....[0m
[0;33mW (2013) NRF24: Maximum number of TX retries interrupt[0m
[0;33mW (2013) SENDER: Send fail:[0m
I (2853) wifi:ap channel adjust o:1,1 n:11,2
I (2853) wifi:new:<11,0>, old:<1,1>, ap:<11,2>, sta:<11,0>, prof:1
I (2853) wifi:state: init -> auth (b0)

assert failed: spi_device_transmit spi_master.c:1023 (ret_trans == trans_desc)


Backtrace: 0x40375ade:0x3fca9a50 0x4037cced:0x3fca9a70 0x403858f9:0x3fca9a90 0x42015e5d:0x3fca9bb0 0x4200c37d:0x3fca9be0 0x4200c395:0x3fca9c30 0x4200c3db:0x3fca9c60 0x4200c558:0x3fca9c80 0x4200c5bf:0x3fca9ca0 0x4200bfea:0x3fca9cc0 0x4037d7f9:0x3fca9d00




ELF file SHA256: 4bd69406c

Rebooting...
ï¿½ï¿½ï¿½ESP-ROM:esp32s3-20210327
Build:Mar 27 2021
rst:0xc (RTC_SW_CPU_RST),boot:0x8 (SPI_FAST_FLASH_BOOT)
Saved PC:0x42045938
SPIWP:0xee
mode:DIO, clock div:1
load:0x3fce3810,len:0x178c
load:0x403c9700,len:0x4
load:0x403c9704,len:0xcbc
load:0x403cc700,len:0x2da0
SHA-256 comparison failed:
Calculated: f6480e415161efbbcec0fe27d1780e22870b6d8f0027b8455711d0f74c133f59
Expected: ffffffffffffffffffffffffffffffffffffffffffffffffffffffffffffffff
Attempting to boot anyway...
entry 0x403c9914
[0;32mI (49) boot: ESP-IDF v5.2.1-dirty 2nd stage bootloader[0m
[0;32mI (50) boot: compile time Mar 22 2025 23:26:23[0m
[0;32mI (50) boot: Multicore bootloader[0m
[0;32mI (53) boot: chip revision: v0.2[0m
[0;32mI (57) boot.esp32s3: Boot SPI Speed : 80MHz[0m
[0;32mI (62) boot.esp32s3: SPI Mode       : DIO[0m
[0;32mI (67) boot.esp32s3: SPI Flash Size : 16MB[0m
[0;32mI (71) boot: Enabling RNG early entropy source...[0m
[0;32mI (77) boot: Partition Table:[0m
[0;32mI (80) boot: ## Label            Usage          Type ST Offset   Length[0m
[0;32mI (88) boot:  0 nvs              WiFi data        01 02 00009000 00006000[0m
[0;32mI (95) boot:  1 phy_init         RF data          01 01 0000f000 00001000[0m
[0;32mI (103) boot:  2 otadata          OTA data         01 00 00010000 00002000[0m
[0;32mI (110) boot:  3 factory          factory app      00 00 00020000 00200000[0m
[0;32mI (118) boot:  4 ota_0            OTA app          00 10 00220000 00200000[0m
[0;32mI (125) boot:  5 ota_1            OTA app          00 11 00420000 00200000[0m
[0;32mI (133) boot:  6 spiffs           Unknown data     01 82 00620000 00080000[0m
[0;32mI (140) boot: End of partition table[0m
[0;32mI (145) boot: Defaulting to factory image[0m
[0;32mI (149) esp_image: segment 0: paddr=00020020 vaddr=3c0c0020 size=2dddch (187868) map[0m
[0;32mI (179) esp_image: segment 1: paddr=0004de04 vaddr=3fc99d00 size=02214h (  8724) load[0m
[0;32mI (180) esp_image: segment 2: paddr=00050020 vaddr=42000020 size=b0998h (723352) map[0m
[0;32mI (265) esp_image: segment 3: paddr=001009c0 vaddr=3fc9bf14 size=026e4h (  9956) load[0m
[0;32mI (267) esp_image: segment 4: paddr=001030ac vaddr=40374000 size=15c00h ( 89088) load[0m
[0;32mI (294) boot: Loaded app from partition at offset 0x20000[0m
[0;32mI (294) boot: Disabling RNG early entropy source...[0m
[0;32mI (305) cpu_start: Multicore app[0m
[0;32mI (315) cpu_start: Pro cpu start user code[0m
[0;32mI (315) cpu_start: cpu freq: 240000000 Hz[0m
[0;32mI (316) cpu_start: Application information:[0m
[0;32mI (318) cpu_start: Project name:     main[0m
[0;32mI (323) cpu_start: App version:      0.0.1[0m
[0;32mI (328) cpu_start: Compile time:     Mar 23 2025 09:34:29[0m
[0;32mI (334) cpu_start: ELF file SHA256:  4bd69406c...[0m
[0;32mI (339) cpu_start: ESP-IDF:          v5.2.1-dirty[0m
[0;32mI (345) cpu_start: Min chip rev:     v0.0[0m
[0;32mI (349) cpu_start: Max chip rev:     v0.99 [0m
[0;32mI (354) cpu_start: Chip rev:         v0.2[0m
[0;32mI (359) heap_init: Initializing. RAM available for dynamic allocation:[0m
[0;32mI (366) heap_init: At 3FCA2928 len 00046DE8 (283 KiB): RAM[0m
[0;32mI (372) heap_init: At 3FCE9710 len 00005724 (21 KiB): RAM[0m
[0;32mI (378) heap_init: At 3FCF0000 len 00008000 (32 KiB): DRAM[0m
[0;32mI (385) heap_init: At 600FE010 len 00001FD8 (7 KiB): RTCRAM[0m
[0;32mI (392) spi_flash: detected chip: boya[0m
[0;32mI (395) spi_flash: flash io: dio[0m
